!Agilent Technologies,E5071C,MY46101917,A.08.10
!Date: Mon Jan 01 05:52:47 2001
!Data & Calibration Information:
!Freq	S11:SOLT2(ON)	S21:SOLT2(ON)	S12:SOLT2(ON)	S22:SOLT2(ON)
# Hz S dB R 50
100000	-5.850738e+001	5.652569e+001	-3.449473e-004	-4.175959e-002	-3.898400e-003	-1.406428e-002	-6.958917e+001	-1.362781e+002
25099500	-3.440118e+001	-9.916365e+001	-1.249206e-002	-5.786485e+000	-1.348598e-002	-5.776248e+000	-3.450974e+001	-9.845432e+001
50099000	-2.875682e+001	-1.073360e+002	-2.098176e-002	-1.149922e+001	-2.105919e-002	-1.151760e+001	-2.884370e+001	-1.038626e+002
75098500	-2.552071e+001	-1.150994e+002	-3.189029e-002	-1.721177e+001	-3.508844e-002	-1.721132e+001	-2.558396e+001	-1.099405e+002
100098000	-2.320589e+001	-1.225729e+002	-4.795795e-002	-2.289473e+001	-5.234873e-002	-2.287829e+001	-2.320198e+001	-1.153991e+002
125097500	-2.138721e+001	-1.300388e+002	-6.674938e-002	-2.856714e+001	-6.839821e-002	-2.855796e+001	-2.149872e+001	-1.213754e+002
150097000	-1.996667e+001	-1.372567e+002	-8.776679e-002	-3.419028e+001	-8.415156e-002	-3.419677e+001	-2.001812e+001	-1.269713e+002
175096500	-1.883493e+001	-1.444459e+002	-1.020600e-001	-3.983132e+001	-1.041559e-001	-3.980936e+001	-1.889793e+001	-1.327597e+002
200096000	-1.782161e+001	-1.516164e+002	-1.219113e-001	-4.547056e+001	-1.212700e-001	-4.546781e+001	-1.789975e+001	-1.377889e+002
225095500	-1.701518e+001	-1.590250e+002	-1.409652e-001	-5.109029e+001	-1.457913e-001	-5.105944e+001	-1.711451e+001	-1.434692e+002
250095000	-1.629275e+001	-1.661959e+002	-1.698864e-001	-5.671326e+001	-1.759484e-001	-5.665569e+001	-1.641675e+001	-1.491537e+002
275094500	-1.569926e+001	-1.732565e+002	-2.062482e-001	-6.223459e+001	-2.045530e-001	-6.219605e+001	-1.584372e+001	-1.545902e+002
300094000	-1.514529e+001	1.796339e+002	-2.301668e-001	-6.766854e+001	-2.199822e-001	-6.763551e+001	-1.532116e+001	-1.606476e+002
325093500	-1.473575e+001	1.731686e+002	-2.329854e-001	-7.314170e+001	-2.216322e-001	-7.313359e+001	-1.491125e+001	-1.662690e+002
350093000	-1.437361e+001	1.658719e+002	-2.306796e-001	-7.875282e+001	-2.275614e-001	-7.881544e+001	-1.453559e+001	-1.721118e+002
375092500	-1.412543e+001	1.594642e+002	-2.587064e-001	-8.444375e+001	-2.672757e-001	-8.448683e+001	-1.422876e+001	-1.774153e+002
400092000	-1.388919e+001	1.525732e+002	-3.097863e-001	-8.993157e+001	-3.122147e-001	-8.989717e+001	-1.398299e+001	1.772245e+002
425091500	-1.374221e+001	1.457506e+002	-3.362035e-001	-9.517807e+001	-3.316653e-001	-9.514076e+001	-1.383125e+001	1.717769e+002
450091000	-1.368078e+001	1.387943e+002	-3.209808e-001	-1.004651e+002	-3.135582e-001	-1.004873e+002	-1.380242e+001	1.664247e+002
475090500	-1.364940e+001	1.320688e+002	-2.978079e-001	-1.059846e+002	-3.020656e-001	-1.060567e+002	-1.381307e+001	1.610485e+002
500090000	-1.370096e+001	1.251739e+002	-2.951182e-001	-1.116652e+002	-3.098444e-001	-1.116884e+002	-1.389541e+001	1.559664e+002
525089500	-1.381895e+001	1.182026e+002	-3.131880e-001	-1.172940e+002	-3.287970e-001	-1.172046e+002	-1.399374e+001	1.504074e+002
550089000	-1.397212e+001	1.112503e+002	-3.443544e-001	-1.227978e+002	-3.393552e-001	-1.226289e+002	-1.417406e+001	1.451703e+002
575088500	-1.422854e+001	1.045763e+002	-3.614058e-001	-1.281383e+002	-3.371245e-001	-1.280451e+002	-1.443494e+001	1.397233e+002
600088000	-1.454505e+001	9.755563e+001	-3.481504e-001	-1.334455e+002	-3.197075e-001	-1.335066e+002	-1.473281e+001	1.345722e+002
625087500	-1.498291e+001	9.062512e+001	-3.180825e-001	-1.388968e+002	-3.050116e-001	-1.390843e+002	-1.514981e+001	1.294517e+002
650087000	-1.556553e+001	8.384531e+001	-2.890086e-001	-1.445167e+002	-3.010779e-001	-1.447054e+002	-1.569151e+001	1.244126e+002
675086500	-1.632575e+001	7.691981e+001	-2.823965e-001	-1.502295e+002	-3.042465e-001	-1.502550e+002	-1.644252e+001	1.191629e+002
700086000	-1.724044e+001	6.960531e+001	-2.824096e-001	-1.558268e+002	-2.999983e-001	-1.557614e+002	-1.734498e+001	1.144773e+002
725085500	-1.841666e+001	6.213467e+001	-2.753992e-001	-1.614024e+002	-2.796191e-001	-1.613168e+002	-1.853815e+001	1.102737e+002
750085000	-1.992604e+001	5.445737e+001	-2.580173e-001	-1.670142e+002	-2.560299e-001	-1.670057e+002	-1.997176e+001	1.066299e+002
775084500	-2.185061e+001	4.565053e+001	-2.432775e-001	-1.727435e+002	-2.427166e-001	-1.727433e+002	-2.184337e+001	1.047026e+002
800084000	-2.457394e+001	3.522021e+001	-2.385960e-001	-1.785139e+002	-2.438321e-001	-1.785009e+002	-2.421281e+001	1.056074e+002
825083500	-2.882251e+001	1.752636e+001	-2.400820e-001	1.756974e+002	-2.455678e-001	1.757508e+002	-2.747065e+001	1.144210e+002
850083000	-3.572413e+001	-2.827531e+001	-2.473473e-001	1.699549e+002	-2.471292e-001	1.699956e+002	-3.076407e+001	1.446486e+002
875082500	-3.222436e+001	-1.152170e+002	-2.487310e-001	1.641496e+002	-2.517032e-001	1.641832e+002	-2.889096e+001	-1.753139e+002
900082000	-2.617623e+001	-1.419284e+002	-2.622425e-001	1.582936e+002	-2.661040e-001	1.583184e+002	-2.503284e+001	-1.595410e+002
925081500	-2.235618e+001	-1.541976e+002	-2.891285e-001	1.524168e+002	-2.906793e-001	1.524865e+002	-2.193765e+001	-1.556539e+002
950081000	-1.960946e+001	-1.640366e+002	-3.280355e-001	1.466175e+002	-3.225356e-001	1.466703e+002	-1.945908e+001	-1.562614e+002
975080500	-1.752978e+001	-1.721992e+002	-3.622132e-001	1.408784e+002	-3.496161e-001	1.408596e+002	-1.745441e+001	-1.595405e+002
1000080000	-1.584310e+001	-1.796650e+002	-3.855617e-001	1.351026e+002	-3.831351e-001	1.349645e+002	-1.583191e+001	-1.641671e+002
1025079500	-1.442142e+001	1.729359e+002	-4.208467e-001	1.291565e+002	-4.425289e-001	1.290251e+002	-1.446201e+001	-1.691128e+002
1050079000	-1.320907e+001	1.660352e+002	-4.893087e-001	1.232160e+002	-5.357452e-001	1.232306e+002	-1.324559e+001	-1.744924e+002
1075078500	-1.215545e+001	1.592457e+002	-5.754266e-001	1.174566e+002	-6.124764e-001	1.176654e+002	-1.222514e+001	1.799090e+002
1100078000	-1.125659e+001	1.526422e+002	-6.560019e-001	1.118425e+002	-6.627813e-001	1.121375e+002	-1.133424e+001	1.738173e+002
1125077500	-1.047044e+001	1.463155e+002	-7.224759e-001	1.062421e+002	-7.129597e-001	1.063521e+002	-1.057056e+001	1.682415e+002
1150077000	-9.807815e+000	1.401177e+002	-7.981964e-001	1.005399e+002	-8.112950e-001	1.005247e+002	-9.913125e+000	1.623088e+002
1175076500	-9.240460e+000	1.339608e+002	-8.934624e-001	9.489351e+001	-9.396554e-001	9.498767e+001	-9.341401e+000	1.564884e+002
1200076000	-8.724588e+000	1.279653e+002	-9.990005e-001	8.939578e+001	-1.052316e+000	8.975826e+001	-8.835198e+000	1.504797e+002
1225075500	-8.295837e+000	1.221858e+002	-1.107509e+000	8.399476e+001	-1.129348e+000	8.458520e+001	-8.411198e+000	1.444989e+002
1250075000	-7.920755e+000	1.161407e+002	-1.214073e+000	7.872850e+001	-1.198337e+000	7.933039e+001	-8.039778e+000	1.384660e+002
1275074500	-7.595146e+000	1.103571e+002	-1.313818e+000	7.367263e+001	-1.263580e+000	7.414900e+001	-7.707149e+000	1.326390e+002
1300074000	-7.320883e+000	1.048411e+002	-1.374143e+000	6.874275e+001	-1.315655e+000	6.902597e+001	-7.421663e+000	1.267927e+002
1325073500	-7.090359e+000	9.933947e+001	-1.408275e+000	6.362088e+001	-1.364255e+000	6.372150e+001	-7.195710e+000	1.210180e+002
1350073000	-6.900209e+000	9.397832e+001	-1.457768e+000	5.819133e+001	-1.444554e+000	5.836796e+001	-6.980889e+000	1.153491e+002
1375072500	-6.730311e+000	8.863910e+001	-1.577113e+000	5.289718e+001	-1.571320e+000	5.331761e+001	-6.828920e+000	1.095487e+002
1400072000	-6.625543e+000	8.331479e+001	-1.717218e+000	4.823443e+001	-1.657308e+000	4.884303e+001	-6.727537e+000	1.035761e+002
1425071500	-6.561344e+000	7.806342e+001	-1.760917e+000	4.412300e+001	-1.632985e+000	4.446394e+001	-6.660922e+000	9.754072e+001
1450071000	-6.528534e+000	7.307568e+001	-1.680371e+000	3.974655e+001	-1.553375e+000	3.944650e+001	-6.643590e+000	9.156181e+001
1475070500	-6.528535e+000	6.811741e+001	-1.570140e+000	3.455112e+001	-1.535989e+000	3.392782e+001	-6.657161e+000	8.545640e+001
1500070000	-6.573702e+000	6.313323e+001	-1.549239e+000	2.896887e+001	-1.594030e+000	2.870395e+001	-6.700413e+000	7.927068e+001
1525069500	-6.659426e+000	5.835214e+001	-1.602719e+000	2.371780e+001	-1.648251e+000	2.398528e+001	-6.796779e+000	7.311069e+001
1550069000	-6.807544e+000	5.355919e+001	-1.656375e+000	1.900875e+001	-1.632769e+000	1.958266e+001	-6.950176e+000	6.684255e+001
1575068500	-7.015323e+000	4.877598e+001	-1.628803e+000	1.469052e+001	-1.539117e+000	1.514396e+001	-7.169572e+000	6.058407e+001
1600068000	-7.249817e+000	4.433295e+001	-1.479879e+000	1.023020e+001	-1.371793e+000	1.021572e+001	-7.433462e+000	5.428947e+001
1625067500	-7.502127e+000	3.995171e+001	-1.281416e+000	4.873603e+000	-1.208586e+000	4.616086e+000	-7.710477e+000	4.777727e+001
1650067000	-7.848170e+000	3.544257e+001	-1.160639e+000	-1.158469e+000	-1.130394e+000	-1.323532e+000	-8.063576e+000	4.095625e+001
1675066500	-8.238477e+000	3.120351e+001	-1.151430e+000	-6.990455e+000	-1.126688e+000	-6.983356e+000	-8.496262e+000	3.406605e+001
1700066000	-8.683341e+000	2.728903e+001	-1.146296e+000	-1.223780e+001	-1.090246e+000	-1.219511e+001	-8.979844e+000	2.681667e+001
1725065500	-9.208151e+000	2.353083e+001	-1.065425e+000	-1.735406e+001	-9.924708e-001	-1.748799e+001	-9.565714e+000	1.931016e+001
1750065000	-9.802511e+000	2.009893e+001	-9.379203e-001	-2.288024e+001	-8.861427e-001	-2.319971e+001	-1.028561e+001	1.144728e+001
1775064500	-1.046333e+001	1.724254e+001	-8.402653e-001	-2.875142e+001	-8.248938e-001	-2.908725e+001	-1.110675e+001	3.005083e+000
1800064000	-1.124484e+001	1.507358e+001	-7.675161e-001	-3.462342e+001	-7.798701e-001	-3.475706e+001	-1.210970e+001	-6.185776e+000
1825063500	-1.206918e+001	1.398258e+001	-6.921952e-001	-4.059584e+001	-7.036297e-001	-4.043357e+001	-1.329095e+001	-1.637010e+001
1850063000	-1.299268e+001	1.408970e+001	-6.395235e-001	-4.679250e+001	-6.094356e-001	-4.641799e+001	-1.464010e+001	-2.804718e+001
1875062500	-1.393653e+001	1.572447e+001	-6.448991e-001	-5.296019e+001	-5.547625e-001	-5.270000e+001	-1.624755e+001	-4.196485e+001
1900062000	-1.484952e+001	1.964176e+001	-6.568437e-001	-5.881577e+001	-5.612804e-001	-5.898000e+001	-1.805649e+001	-5.957594e+001
1925061500	-1.554291e+001	2.566517e+001	-6.356770e-001	-6.463539e+001	-5.959307e-001	-6.498530e+001	-1.996468e+001	-8.277505e+001
1950061000	-1.580693e+001	3.363965e+001	-6.075534e-001	-7.079646e+001	-6.229691e-001	-7.081876e+001	-2.108476e+001	-1.136400e+002
1975060500	-1.548053e+001	4.138523e+001	-6.465272e-001	-7.707375e+001	-6.367435e-001	-7.657569e+001	-2.055412e+001	-1.457467e+002
2000060000	-1.480205e+001	4.684103e+001	-7.342784e-001	-8.301080e+001	-6.375837e-001	-8.228980e+001	-1.889652e+001	-1.720117e+002
2025059500	-1.394675e+001	5.050754e+001	-7.896159e-001	-8.848697e+001	-6.203050e-001	-8.811453e+001	-1.699841e+001	1.692579e+002
2050059000	-1.304268e+001	5.200762e+001	-7.841458e-001	-9.404024e+001	-5.955805e-001	-9.415522e+001	-1.532625e+001	1.552729e+002
2075058500	-1.221146e+001	5.182919e+001	-7.710462e-001	-1.000736e+002	-6.104133e-001	-1.005191e+002	-1.392581e+001	1.431738e+002
2100058000	-1.142804e+001	5.044886e+001	-8.316883e-001	-1.062888e+002	-6.971926e-001	-1.068914e+002	-1.276301e+001	1.328022e+002
2125057500	-1.074508e+001	4.831717e+001	-9.541628e-001	-1.121015e+002	-8.563317e-001	-1.128234e+002	-1.182551e+001	1.234228e+002
2150057000	-1.011973e+001	4.562092e+001	-1.061952e+000	-1.173959e+002	-1.001902e+000	-1.180269e+002	-1.101456e+001	1.147343e+002
2175056500	-9.617128e+000	4.237782e+001	-1.100111e+000	-1.225662e+002	-1.052210e+000	-1.228992e+002	-1.034678e+001	1.065295e+002
2200056000	-9.190248e+000	3.903479e+001	-1.103917e+000	-1.279474e+002	-1.015588e+000	-1.280884e+002	-9.796393e+000	9.908934e+001
2225055500	-8.805892e+000	3.513910e+001	-1.125164e+000	-1.335907e+002	-9.739147e-001	-1.338136e+002	-9.351656e+000	9.172740e+001
2250055000	-8.555918e+000	3.116180e+001	-1.189303e+000	-1.390672e+002	-9.832154e-001	-1.397796e+002	-8.999599e+000	8.464907e+001
2275054500	-8.353746e+000	2.712228e+001	-1.219858e+000	-1.442296e+002	-1.037232e+000	-1.456737e+002	-8.735871e+000	7.776156e+001
2300054000	-8.218405e+000	2.302061e+001	-1.204909e+000	-1.495776e+002	-1.129859e+000	-1.515236e+002	-8.541618e+000	7.085750e+001
2325053500	-8.160410e+000	1.880211e+001	-1.214372e+000	-1.553284e+002	-1.276565e+000	-1.569566e+002	-8.447138e+000	6.413849e+001
2350053000	-8.154413e+000	1.467589e+001	-1.301910e+000	-1.608297e+002	-1.400836e+000	-1.615749e+002	-8.411782e+000	5.753168e+001
2375052500	-8.220601e+000	1.037026e+001	-1.367504e+000	-1.655084e+002	-1.357867e+000	-1.657209e+002	-8.434902e+000	5.097042e+001
2400052000	-8.331064e+000	6.059484e+000	-1.266326e+000	-1.700388e+002	-1.140184e+000	-1.708297e+002	-8.536334e+000	4.457962e+001
2425051500	-8.515987e+000	1.451261e+000	-1.069406e+000	-1.757376e+002	-9.924051e-001	-1.775550e+002	-8.702676e+000	3.795169e+001
2450051000	-8.833018e+000	-2.966606e+000	-1.014979e+000	1.775594e+002	-1.119724e+000	1.754440e+002	-9.041216e+000	3.134062e+001
2475050500	-9.232013e+000	-6.753062e+000	-1.148506e+000	1.713482e+002	-1.390448e+000	1.700782e+002	-9.441396e+000	2.522385e+001
2500050000	-9.616170e+000	-1.087004e+001	-1.285343e+000	1.664058e+002	-1.511653e+000	1.662980e+002	-9.854547e+000	1.865277e+001
2525049500	-1.018726e+001	-1.512260e+001	-1.259065e+000	1.620049e+002	-1.355707e+000	1.624779e+002	-1.045626e+001	1.170580e+001
2550049000	-1.089822e+001	-1.889429e+001	-1.088842e+000	1.569927e+002	-1.067639e+000	1.572349e+002	-1.122975e+001	4.910721e+000
2575048500	-1.172014e+001	-2.244998e+001	-9.169203e-001	1.509637e+002	-8.567645e-001	1.506710e+002	-1.215818e+001	-2.045124e+000
2600048000	-1.277026e+001	-2.530799e+001	-8.415855e-001	1.444839e+002	-8.095608e-001	1.437630e+002	-1.334519e+001	-8.768667e+000
2625047500	-1.411891e+001	-2.653381e+001	-8.701543e-001	1.380722e+002	-8.759236e-001	1.372611e+002	-1.491748e+001	-1.564921e+001
2650047000	-1.560212e+001	-2.589226e+001	-9.343877e-001	1.322371e+002	-9.667045e-001	1.314745e+002	-1.687882e+001	-2.232909e+001
2675046500	-1.732872e+001	-2.202286e+001	-9.391170e-001	1.268313e+002	-9.953556e-001	1.261269e+002	-1.976180e+001	-3.056023e+001
2700046000	-1.935532e+001	-1.236220e+001	-8.573051e-001	1.211218e+002	-9.413756e-001	1.207080e+002	-2.448930e+001	-3.907638e+001
2725045500	-2.051037e+001	5.241489e+000	-7.996162e-001	1.147931e+002	-8.647939e-001	1.148654e+002	-3.664855e+001	-5.189518e+001
2750045000	-1.997660e+001	2.526580e+001	-8.415057e-001	1.084752e+002	-7.951497e-001	1.088689e+002	-3.046803e+001	1.323548e+002
2775044500	-1.825094e+001	3.919921e+001	-8.767287e-001	1.027618e+002	-7.009800e-001	1.026123e+002	-2.262230e+001	1.230980e+002
2800044000	-1.610897e+001	4.658166e+001	-8.036912e-001	9.693183e+001	-6.073372e-001	9.562486e+001	-1.842812e+001	1.158689e+002
2825043500	-1.416674e+001	4.761497e+001	-7.243518e-001	9.011113e+001	-6.616568e-001	8.792021e+001	-1.555348e+001	1.070017e+002
2850043000	-1.274995e+001	4.618589e+001	-8.077650e-001	8.274708e+001	-9.271931e-001	8.071905e+001	-1.371199e+001	9.943632e+001
2875042500	-1.155925e+001	4.451932e+001	-1.053550e+000	7.598719e+001	-1.256052e+000	7.493091e+001	-1.225585e+001	9.285372e+001
2900042000	-1.038131e+001	4.173857e+001	-1.326902e+000	7.044029e+001	-1.467985e+000	7.034967e+001	-1.094791e+001	8.634475e+001
2925041500	-9.465085e+000	3.788082e+001	-1.490472e+000	6.574568e+001	-1.455204e+000	6.587666e+001	-9.913246e+000	7.921318e+001
2950041000	-8.725610e+000	3.370321e+001	-1.467917e+000	6.106764e+001	-1.290193e+000	6.020394e+001	-9.087459e+000	7.251825e+001
2975040500	-8.045789e+000	2.915140e+001	-1.322128e+000	5.507165e+001	-1.195732e+000	5.268786e+001	-8.391419e+000	6.571106e+001
3000040000	-7.553235e+000	2.424189e+001	-1.320695e+000	4.744558e+001	-1.432183e+000	4.427336e+001	-7.861570e+000	5.861694e+001
3025039500	-7.235117e+000	2.020157e+001	-1.681607e+000	3.992737e+001	-2.026951e+000	3.758844e+001	-7.510473e+000	5.278528e+001
3050039000	-6.795945e+000	1.644518e+001	-2.223986e+000	3.487701e+001	-2.615018e+000	3.407446e+001	-7.047507e+000	4.728118e+001
3075038500	-6.426031e+000	1.161418e+001	-2.512820e+000	3.226532e+001	-2.757374e+000	3.235533e+001	-6.653926e+000	4.071127e+001
3100038000	-6.213973e+000	6.862103e+000	-2.356031e+000	2.918292e+001	-2.458349e+000	2.897926e+001	-6.439656e+000	3.436141e+001
3125037500	-6.047464e+000	2.396871e+000	-2.099355e+000	2.351603e+001	-2.194386e+000	2.250753e+001	-6.272867e+000	2.833060e+001
3150037000	-5.948787e+000	-2.045894e+000	-2.126943e+000	1.650564e+001	-2.318176e+000	1.516463e+001	-6.178571e+000	2.228362e+001
3175036500	-5.889387e+000	-6.147675e+000	-2.400768e+000	1.047504e+001	-2.680025e+000	9.447229e+000	-6.108860e+000	1.647861e+001
3200036000	-5.833608e+000	-1.011134e+001	-2.673294e+000	5.877584e+000	-2.968100e+000	5.444607e+000	-6.061018e+000	1.065337e+001
3225035500	-5.799912e+000	-1.444385e+001	-2.834972e+000	2.115505e+000	-3.086666e+000	2.029259e+000	-6.055773e+000	4.491393e+000
3250035000	-5.854850e+000	-1.890511e+001	-2.860481e+000	-1.238116e+000	-3.072416e+000	-1.376583e+000	-6.122000e+000	-1.902747e+000
3275034500	-5.984398e+000	-2.344039e+001	-2.699395e+000	-4.739507e+000	-2.918137e+000	-4.982698e+000	-6.268200e+000	-8.292570e+000
3300034000	-6.176075e+000	-2.756484e+001	-2.389819e+000	-9.636112e+000	-2.657312e+000	-9.755630e+000	-6.488068e+000	-1.461417e+001
3325033500	-6.401348e+000	-3.153791e+001	-2.218426e+000	-1.604500e+001	-2.486491e+000	-1.567066e+001	-6.750123e+000	-2.098682e+001
3350033000	-6.661138e+000	-3.543318e+001	-2.310475e+000	-2.222667e+001	-2.490684e+000	-2.153995e+001	-7.068785e+000	-2.753332e+001
3375032500	-6.972527e+000	-3.945790e+001	-2.434964e+000	-2.657464e+001	-2.535806e+000	-2.632380e+001	-7.457388e+000	-3.455925e+001
3400032000	-7.396691e+000	-4.356979e+001	-2.277962e+000	-3.027527e+001	-2.407117e+000	-3.061042e+001	-7.980741e+000	-4.215365e+001
3425031500	-7.924831e+000	-4.716595e+001	-1.950930e+000	-3.539353e+001	-2.166256e+000	-3.586916e+001	-8.639737e+000	-4.977089e+001
3450031000	-8.512133e+000	-5.027751e+001	-1.737221e+000	-4.183609e+001	-2.005079e+000	-4.196890e+001	-9.410499e+000	-5.757639e+001
3475030500	-9.186131e+000	-5.300688e+001	-1.678548e+000	-4.802839e+001	-1.947536e+000	-4.785688e+001	-1.029755e+001	-6.624497e+001
3500030000	-9.987302e+000	-5.533221e+001	-1.578890e+000	-5.366641e+001	-1.850808e+000	-5.323232e+001	-1.143112e+001	-7.560769e+001
3525029500	-1.093303e+001	-5.630502e+001	-1.403379e+000	-5.975759e+001	-1.665001e+000	-5.893047e+001	-1.287196e+001	-8.621008e+001
3550029000	-1.197790e+001	-5.538400e+001	-1.293989e+000	-6.648603e+001	-1.481691e+000	-6.542808e+001	-1.465382e+001	-9.843120e+001
3575028500	-1.298933e+001	-5.286763e+001	-1.272033e+000	-7.309425e+001	-1.388677e+000	-7.240282e+001	-1.685927e+001	-1.144026e+002
3600028000	-1.394891e+001	-4.765635e+001	-1.252140e+000	-7.934714e+001	-1.391729e+000	-7.923510e+001	-1.937017e+001	-1.377309e+002
3625027500	-1.452886e+001	-3.980654e+001	-1.196311e+000	-8.583196e+001	-1.430501e+000	-8.583241e+001	-2.142858e+001	-1.725267e+002
3650027000	-1.458412e+001	-3.124951e+001	-1.190287e+000	-9.266668e+001	-1.493137e+000	-9.222336e+001	-2.107048e+001	1.469482e+002
3675026500	-1.410595e+001	-2.322921e+001	-1.253947e+000	-9.950095e+001	-1.566733e+000	-9.842444e+001	-1.872855e+001	1.168664e+002
3700026000	-1.319925e+001	-1.727881e+001	-1.381010e+000	-1.060860e+002	-1.636202e+000	-1.043653e+002	-1.627561e+001	9.619112e+001
3725025500	-1.215165e+001	-1.429734e+001	-1.535189e+000	-1.121994e+002	-1.648842e+000	-1.102769e+002	-1.425531e+001	8.094249e+001
3750025000	-1.118711e+001	-1.359183e+001	-1.649884e+000	-1.177575e+002	-1.642384e+000	-1.167376e+002	-1.262896e+001	6.885867e+001
3775024500	-1.028453e+001	-1.436535e+001	-1.642837e+000	-1.235015e+002	-1.740350e+000	-1.237647e+002	-1.130089e+001	5.875067e+001
3800024000	-9.519237e+000	-1.628414e+001	-1.668033e+000	-1.304486e+002	-2.049581e+000	-1.304742e+002	-1.027185e+001	4.971405e+001
3825023500	-8.838987e+000	-1.856554e+001	-1.948456e+000	-1.374735e+002	-2.427212e+000	-1.352939e+002	-9.431295e+000	4.184008e+001
