!Agilent Technologies,E5071C,MY46101917,A.08.10
!Date: Mon Jan 01 05:18:49 2001
!Data & Calibration Information:
!Freq	S11:SOLT2(ON)	S21:SOLT2(ON)	S12:SOLT2(ON)	S22:SOLT2(ON)
# Hz S MA R 50
100000	8.326251e-004	2.917098e+001	9.999796e-001	-4.490214e-002	9.990828e-001	-5.004178e-002	1.295159e-003	-9.551424e+001
25099500	1.969150e-002	-9.757083e+001	9.985175e-001	-5.883448e+000	9.984362e-001	-5.866752e+000	1.921699e-002	-9.888892e+001
50099000	3.747642e-002	-1.049367e+002	9.975651e-001	-1.168059e+001	9.972557e-001	-1.169666e+001	3.772431e-002	-1.064407e+002
75098500	5.492873e-002	-1.119604e+002	9.962325e-001	-1.747755e+001	9.959389e-001	-1.747077e+001	5.448173e-002	-1.144513e+002
100098000	7.154461e-002	-1.184981e+002	9.941409e-001	-2.326539e+001	9.938276e-001	-2.325947e+001	7.152368e-002	-1.209327e+002
125097500	8.831930e-002	-1.249589e+002	9.919576e-001	-2.899948e+001	9.916837e-001	-2.900238e+001	8.721104e-002	-1.276771e+002
150097000	1.042051e-001	-1.311844e+002	9.895096e-001	-3.472342e+001	9.894627e-001	-3.473205e+001	1.037542e-001	-1.342296e+002
175096500	1.190474e-001	-1.373094e+002	9.875791e-001	-4.044135e+001	9.870087e-001	-4.044561e+001	1.188138e-001	-1.410508e+002
200096000	1.340844e-001	-1.433199e+002	9.852765e-001	-4.618532e+001	9.850877e-001	-4.616845e+001	1.334611e-001	-1.476728e+002
225095500	1.477454e-001	-1.496894e+002	9.827088e-001	-5.189919e+001	9.820407e-001	-5.185485e+001	1.472563e-001	-1.545946e+002
250095000	1.616611e-001	-1.558503e+002	9.789727e-001	-5.760427e+001	9.787431e-001	-5.755383e+001	1.608247e-001	-1.614598e+002
275094500	1.740875e-001	-1.621076e+002	9.743575e-001	-6.321797e+001	9.745796e-001	-6.319107e+001	1.731843e-001	-1.678587e+002
300094000	1.865237e-001	-1.684165e+002	9.714645e-001	-6.871851e+001	9.718406e-001	-6.868574e+001	1.848053e-001	-1.746630e+002
325093500	1.974123e-001	-1.742499e+002	9.708833e-001	-7.428060e+001	9.713002e-001	-7.423567e+001	1.955962e-001	1.788415e+002
350093000	2.072671e-001	1.793523e+002	9.701793e-001	-8.003199e+001	9.702869e-001	-7.998805e+001	2.061287e-001	1.722414e+002
375092500	2.162691e-001	1.737058e+002	9.654145e-001	-8.579828e+001	9.656187e-001	-8.575100e+001	2.151830e-001	1.659851e+002
400092000	2.251488e-001	1.676303e+002	9.588248e-001	-9.130241e+001	9.597905e-001	-9.128016e+001	2.238934e-001	1.596808e+002
425091500	2.317462e-001	1.616020e+002	9.555255e-001	-9.659863e+001	9.558346e-001	-9.659001e+001	2.312690e-001	1.532806e+002
450091000	2.369007e-001	1.557904e+002	9.570310e-001	-1.019544e+002	9.562863e-001	-1.019556e+002	2.357758e-001	1.467875e+002
475090500	2.414611e-001	1.498895e+002	9.586195e-001	-1.075797e+002	9.569507e-001	-1.075015e+002	2.397450e-001	1.403783e+002
500090000	2.441424e-001	1.438931e+002	9.567465e-001	-1.133358e+002	9.561852e-001	-1.131658e+002	2.421939e-001	1.340901e+002
525089500	2.449678e-001	1.380364e+002	9.523321e-001	-1.189780e+002	9.534358e-001	-1.187499e+002	2.446257e-001	1.276799e+002
550089000	2.462728e-001	1.319440e+002	9.474166e-001	-1.244150e+002	9.509499e-001	-1.242250e+002	2.450043e-001	1.213137e+002
575088500	2.455857e-001	1.261356e+002	9.452095e-001	-1.296694e+002	9.500451e-001	-1.296191e+002	2.441785e-001	1.149982e+002
600088000	2.432830e-001	1.201809e+002	9.468523e-001	-1.349636e+002	9.507451e-001	-1.350537e+002	2.424358e-001	1.088410e+002
625087500	2.403857e-001	1.144784e+002	9.503447e-001	-1.404599e+002	9.521143e-001	-1.406048e+002	2.396952e-001	1.026414e+002
650087000	2.351034e-001	1.088686e+002	9.516053e-001	-1.461091e+002	9.519066e-001	-1.462258e+002	2.353072e-001	9.631138e+001
675086500	2.289068e-001	1.032660e+002	9.502942e-001	-1.517337e+002	9.504752e-001	-1.518015e+002	2.288075e-001	8.979303e+001
700086000	2.215179e-001	9.751415e+001	9.492450e-001	-1.571835e+002	9.492407e-001	-1.572358e+002	2.207827e-001	8.337715e+001
725085500	2.120887e-001	9.187253e+001	9.505209e-001	-1.625957e+002	9.503661e-001	-1.626293e+002	2.105646e-001	7.695600e+001
750085000	2.016891e-001	8.651245e+001	9.539696e-001	-1.680785e+002	9.541343e-001	-1.681252e+002	2.003927e-001	7.045381e+001
775084500	1.895880e-001	8.107034e+001	9.568833e-001	-1.737682e+002	9.572813e-001	-1.737768e+002	1.883917e-001	6.374814e+001
800084000	1.768478e-001	7.621193e+001	9.579050e-001	-1.794811e+002	9.581714e-001	-1.794907e+002	1.751495e-001	5.710214e+001
825083500	1.619905e-001	7.134421e+001	9.580665e-001	1.748794e+002	9.586779e-001	1.748652e+002	1.603002e-001	4.996700e+001
850083000	1.458050e-001	6.725718e+001	9.587084e-001	1.692782e+002	9.595257e-001	1.692761e+002	1.437391e-001	4.266123e+001
875082500	1.281103e-001	6.411231e+001	9.606027e-001	1.637024e+002	9.620050e-001	1.636631e+002	1.259369e-001	3.463717e+001
900082000	1.102177e-001	6.209772e+001	9.636992e-001	1.580164e+002	9.641013e-001	1.579465e+002	1.060293e-001	2.650376e+001
925081500	9.183949e-002	6.197210e+001	9.661044e-001	1.522345e+002	9.656215e-001	1.521899e+002	8.604682e-002	1.732903e+001
950081000	7.552167e-002	6.546221e+001	9.669314e-001	1.463774e+002	9.669127e-001	1.463725e+002	6.493356e-002	6.281043e+000
975080500	6.126218e-002	7.414393e+001	9.671470e-001	1.406005e+002	9.674287e-001	1.405652e+002	4.407237e-002	-9.940035e+000
1000080000	5.335895e-002	8.962570e+001	9.668493e-001	1.348179e+002	9.671996e-001	1.347359e+002	2.550521e-002	-4.044322e+001
1025079500	5.609674e-002	1.085776e+002	9.671794e-001	1.289815e+002	9.660261e-001	1.289043e+002	2.150547e-002	-1.082926e+002
1050079000	6.717821e-002	1.217551e+002	9.663749e-001	1.230876e+002	9.643156e-001	1.230749e+002	3.874371e-002	-1.499669e+002
1075078500	8.431802e-002	1.280267e+002	9.641292e-001	1.172203e+002	9.624479e-001	1.172789e+002	6.097143e-002	-1.673855e+002
1100078000	1.038284e-001	1.301555e+002	9.611010e-001	1.113779e+002	9.607613e-001	1.114800e+002	8.475419e-002	1.799723e+002
1125077500	1.253195e-001	1.293456e+002	9.582106e-001	1.055735e+002	9.584904e-001	1.055861e+002	1.084644e-001	1.714114e+002
1150077000	1.463592e-001	1.268643e+002	9.548900e-001	9.971801e+001	9.537943e-001	9.968544e+001	1.318711e-001	1.635450e+002
1175076500	1.669052e-001	1.232465e+002	9.498756e-001	9.387041e+001	9.468428e-001	9.393512e+001	1.548487e-001	1.561208e+002
1200076000	1.876834e-001	1.189742e+002	9.439361e-001	8.809939e+001	9.409138e-001	8.831359e+001	1.769533e-001	1.489797e+002
1225075500	2.071780e-001	1.143500e+002	9.375640e-001	8.238687e+001	9.361387e-001	8.271439e+001	1.975731e-001	1.422939e+002
1250075000	2.251025e-001	1.090312e+002	9.301539e-001	7.675208e+001	9.315992e-001	7.712488e+001	2.175157e-001	1.355815e+002
1275074500	2.427605e-001	1.036816e+002	9.237543e-001	7.127007e+001	9.272926e-001	7.155927e+001	2.357715e-001	1.292425e+002
1300074000	2.585504e-001	9.824361e+001	9.194180e-001	6.584755e+001	9.233914e-001	6.600968e+001	2.532608e-001	1.229235e+002
1325073500	2.722417e-001	9.281569e+001	9.164937e-001	6.033119e+001	9.194348e-001	6.038254e+001	2.672960e-001	1.168146e+002
1350073000	2.845026e-001	8.736745e+001	9.124305e-001	5.462651e+001	9.132783e-001	5.474984e+001	2.810667e-001	1.108912e+002
1375072500	2.953107e-001	8.175166e+001	9.029805e-001	4.903268e+001	9.036249e-001	4.931929e+001	2.924399e-001	1.050829e+002
1400072000	3.036112e-001	7.614811e+001	8.924492e-001	4.392426e+001	8.972640e-001	4.431726e+001	3.015358e-001	9.908908e+001
1425071500	3.102167e-001	7.028019e+001	8.892429e-001	3.911652e+001	8.987847e-001	3.932703e+001	3.089776e-001	9.320445e+001
1450071000	3.150607e-001	6.475925e+001	8.941597e-001	3.415565e+001	9.034482e-001	3.388732e+001	3.142093e-001	8.756557e+001
1475070500	3.178983e-001	5.900536e+001	9.010453e-001	2.860455e+001	9.032073e-001	2.815349e+001	3.167687e-001	8.195154e+001
1500070000	3.183925e-001	5.320751e+001	9.014351e-001	2.282573e+001	8.980656e-001	2.265114e+001	3.181659e-001	7.627014e+001
1525069500	3.167446e-001	4.748410e+001	8.966335e-001	1.726515e+001	8.937850e-001	1.751048e+001	3.177091e-001	7.079001e+001
1550069000	3.126559e-001	4.171892e+001	8.913562e-001	1.210435e+001	8.946930e-001	1.255797e+001	3.145236e-001	6.523487e+001
1575068500	3.058550e-001	3.586924e+001	8.918122e-001	7.178308e+000	9.011779e-001	7.492434e+000	3.088813e-001	5.975520e+001
1600068000	2.977736e-001	3.011533e+001	9.002779e-001	2.176656e+000	9.113851e-001	2.025464e+000	3.009479e-001	5.441884e+001
1625067500	2.879361e-001	2.427303e+001	9.122063e-001	-3.393382e+000	9.193084e-001	-3.828019e+000	2.924310e-001	4.897891e+001
1650067000	2.750419e-001	1.824382e+001	9.186142e-001	-9.401876e+000	9.209318e-001	-9.770979e+000	2.802178e-001	4.362857e+001
1675066500	2.596181e-001	1.219860e+001	9.182102e-001	-1.528226e+001	9.186476e-001	-1.542523e+001	2.654399e-001	3.840223e+001
1700066000	2.420856e-001	6.394980e+000	9.164746e-001	-2.078745e+001	9.202750e-001	-2.081875e+001	2.483747e-001	3.323877e+001
1725065500	2.222935e-001	6.763494e-001	9.198777e-001	-2.615569e+001	9.262912e-001	-2.637116e+001	2.286060e-001	2.814644e+001
1750065000	2.003153e-001	-5.147048e+000	9.270588e-001	-3.177717e+001	9.315921e-001	-3.218768e+001	2.075101e-001	2.357705e+001
1775064500	1.766430e-001	-1.066512e+001	9.323971e-001	-3.762995e+001	9.335590e-001	-3.801980e+001	1.845338e-001	1.934402e+001
1800064000	1.502419e-001	-1.614632e+001	9.360751e-001	-4.347676e+001	9.358562e-001	-4.373773e+001	1.593578e-001	1.565778e+001
1825063500	1.234402e-001	-2.077824e+001	9.398971e-001	-4.937368e+001	9.402994e-001	-4.957546e+001	1.331575e-001	1.317629e+001
1850063000	9.466469e-002	-2.435195e+001	9.430635e-001	-5.537578e+001	9.434586e-001	-5.559619e+001	1.065684e-001	1.239968e+001
1875062500	6.514497e-002	-2.483284e+001	9.433438e-001	-6.143642e+001	9.425666e-001	-6.160151e+001	8.038997e-002	1.612864e+001
1900062000	3.683699e-002	-1.411626e+001	9.426078e-001	-6.741278e+001	9.418037e-001	-6.749282e+001	5.808894e-002	2.842917e+001
1925061500	2.294586e-002	3.887381e+001	9.410989e-001	-7.341321e+001	9.414258e-001	-7.340430e+001	4.756790e-002	5.553989e+001
1950061000	4.197056e-002	8.204097e+001	9.380762e-001	-7.941374e+001	9.399223e-001	-7.941038e+001	5.628446e-002	8.528196e+001
1975060500	7.154383e-002	8.909967e+001	9.325459e-001	-8.531403e+001	9.355825e-001	-8.536089e+001	7.936482e-002	9.951836e+001
2000060000	1.018371e-001	8.826697e+001	9.284476e-001	-9.101909e+001	9.307381e-001	-9.110410e+001	1.074342e-001	1.035771e+002
2025059500	1.327380e-001	8.499290e+001	9.279652e-001	-9.669422e+001	9.288248e-001	-9.670078e+001	1.361016e-001	1.036516e+002
2050059000	1.621944e-001	8.027787e+001	9.288215e-001	-1.026362e+002	9.304257e-001	-1.024526e+002	1.645696e-001	1.016180e+002
2075058500	1.901923e-001	7.482020e+001	9.252235e-001	-1.088427e+002	9.321005e-001	-1.085761e+002	1.925481e-001	9.790597e+001
2100058000	2.165660e-001	6.887112e+001	9.147051e-001	-1.149181e+002	9.270484e-001	-1.149313e+002	2.185660e-001	9.399435e+001
2125057500	2.409117e-001	6.296627e+001	9.024988e-001	-1.204844e+002	9.131907e-001	-1.210091e+002	2.436061e-001	8.947024e+001
2150057000	2.643345e-001	5.701696e+001	8.953719e-001	-1.257600e+002	8.983508e-001	-1.264241e+002	2.668313e-001	8.473253e+001
2175056500	2.844833e-001	5.100572e+001	8.935124e-001	-1.311210e+002	8.921924e-001	-1.314058e+002	2.871470e-001	7.976261e+001
2200056000	3.025542e-001	4.528043e+001	8.927266e-001	-1.367022e+002	8.950800e-001	-1.365879e+002	3.051445e-001	7.502595e+001
2225055500	3.187366e-001	3.904787e+001	8.891428e-001	-1.424500e+002	8.994406e-001	-1.423313e+002	3.210672e-001	6.989674e+001
2250055000	3.306264e-001	3.303117e+001	8.822903e-001	-1.479433e+002	8.994038e-001	-1.483414e+002	3.346477e-001	6.482732e+001
2275054500	3.410869e-001	2.703346e+001	8.796528e-001	-1.532259e+002	8.941818e-001	-1.543477e+002	3.454193e-001	5.989629e+001
2300054000	3.482155e-001	2.086186e+001	8.802489e-001	-1.587172e+002	8.844517e-001	-1.602727e+002	3.537024e-001	5.492991e+001
2325053500	3.531753e-001	1.475787e+001	8.770214e-001	-1.645117e+002	8.697452e-001	-1.657920e+002	3.592741e-001	5.001932e+001
2350053000	3.557988e-001	8.700041e+000	8.677496e-001	-1.699679e+002	8.582837e-001	-1.704953e+002	3.618238e-001	4.523241e+001
2375052500	3.550098e-001	2.459479e+000	8.627427e-001	-1.746712e+002	8.630301e-001	-1.748571e+002	3.625535e-001	4.043939e+001
2400052000	3.527728e-001	-3.739661e+000	8.735335e-001	-1.794109e+002	8.825597e-001	1.797081e+002	3.607655e-001	3.564440e+001
2425051500	3.469768e-001	-1.015392e+001	8.903026e-001	1.747180e+002	8.907706e-001	1.728259e+002	3.566441e-001	3.073423e+001
2450051000	3.358586e-001	-1.662797e+001	8.931023e-001	1.680468e+002	8.720575e-001	1.661246e+002	3.470980e-001	2.606611e+001
2475050500	3.246449e-001	-2.274759e+001	8.779771e-001	1.618909e+002	8.446496e-001	1.612023e+002	3.362249e-001	2.193630e+001
2500050000	3.125380e-001	-2.950225e+001	8.643830e-001	1.569611e+002	8.388652e-001	1.576221e+002	3.261794e-001	1.745344e+001
2525049500	2.954487e-001	-3.664023e+001	8.659895e-001	1.525580e+002	8.598974e-001	1.535151e+002	3.104383e-001	1.300585e+001
2550049000	2.757374e-001	-4.369594e+001	8.818664e-001	1.475953e+002	8.874143e-001	1.476945e+002	2.925539e-001	9.059255e+000
2575048500	2.536760e-001	-5.096685e+001	8.988435e-001	1.417262e+002	8.997386e-001	1.408347e+002	2.733449e-001	5.289270e+000
2600048000	2.281760e-001	-5.854376e+001	9.088777e-001	1.353142e+002	8.935479e-001	1.341490e+002	2.511367e-001	2.052599e+000
2625047500	1.998395e-001	-6.612310e+001	9.087500e-001	1.288029e+002	8.800901e-001	1.283741e+002	2.262832e-001	5.102729e-002
2650047000	1.728917e-001	-7.449038e+001	9.008780e-001	1.226877e+002	8.723612e-001	1.235068e+002	2.043626e-001	-1.205130e+000
2675046500	1.423452e-001	-8.451869e+001	8.933736e-001	1.171953e+002	8.816196e-001	1.187969e+002	1.804981e-001	-1.424599e+000
2700046000	1.084796e-001	-9.708149e+001	8.948794e-001	1.119869e+002	9.027583e-001	1.131264e+002	1.561358e-001	2.782130e-001
2725045500	7.768192e-002	-1.130182e+002	9.044848e-001	1.064966e+002	9.142112e-001	1.064187e+002	1.361332e-001	6.173630e+000
2750045000	5.011565e-002	-1.406249e+002	9.155547e-001	1.004406e+002	9.095092e-001	9.989033e+001	1.241892e-001	1.447950e+001
2775044500	3.769645e-002	1.676290e+002	9.224811e-001	9.402956e+001	9.047345e-001	9.427101e+001	1.199284e-001	2.514287e+001
2800044000	5.591484e-002	1.200772e+002	9.238969e-001	8.743461e+001	9.141684e-001	8.869498e+001	1.287131e-001	3.601481e+001
2825043500	8.611288e-002	9.472173e+001	9.181187e-001	8.070579e+001	9.265382e-001	8.200397e+001	1.460127e-001	4.211381e+001
2850043000	1.169097e-001	7.966604e+001	9.039518e-001	7.436801e+001	9.216418e-001	7.482415e+001	1.637154e-001	4.604703e+001
2875042500	1.479278e-001	6.963598e+001	8.889544e-001	6.855546e+001	9.023889e-001	6.826707e+001	1.859147e-001	4.793896e+001
2900042000	1.800391e-001	6.038824e+001	8.788217e-001	6.325959e+001	8.841077e-001	6.282174e+001	2.112912e-001	4.792383e+001
2925041500	2.094038e-001	5.223928e+001	8.768222e-001	5.810400e+001	8.809352e-001	5.789414e+001	2.363467e-001	4.601000e+001
2950041000	2.357107e-001	4.445684e+001	8.851290e-001	5.258715e+001	8.926529e-001	5.234433e+001	2.590759e-001	4.331326e+001
2975040500	2.609161e-001	3.661466e+001	8.941330e-001	4.603336e+001	9.040136e-001	4.541360e+001	2.807204e-001	3.959910e+001
3000040000	2.802779e-001	2.892092e+001	8.866439e-001	3.873655e+001	8.914550e-001	3.760155e+001	2.972822e-001	3.546386e+001
3025039500	2.950295e-001	2.269251e+001	8.561558e-001	3.213587e+001	8.511030e-001	3.087733e+001	3.099970e-001	3.235431e+001
3050039000	3.148015e-001	1.660739e+001	8.234724e-001	2.739144e+001	8.116624e-001	2.650199e+001	3.287326e-001	2.883421e+001
3075038500	3.303749e-001	9.475254e+000	8.146760e-001	2.392408e+001	8.033253e-001	2.350194e+001	3.435735e-001	2.384457e+001
3100038000	3.385755e-001	2.679986e+000	8.329472e-001	1.950328e+001	8.252981e-001	1.922472e+001	3.500358e-001	1.918970e+001
3125037500	3.449159e-001	-3.728132e+000	8.504591e-001	1.320161e+001	8.429539e-001	1.265561e+001	3.546422e-001	1.457489e+001
3150037000	3.474396e-001	-9.973573e+000	8.457421e-001	6.344346e+000	8.329182e-001	5.670364e+000	3.561402e-001	9.996812e+000
3175036500	3.478453e-001	-1.597997e+001	8.266451e-001	3.706949e-001	8.085029e-001	4.846575e-003	3.553529e-001	5.730884e+000
3200036000	3.472453e-001	-2.211718e+001	8.115101e-001	-4.567108e+000	7.929799e-001	-4.416504e+000	3.539955e-001	1.279337e+000
3225035500	3.430404e-001	-2.879269e+001	8.052299e-001	-9.111527e+000	7.901511e-001	-8.574909e+000	3.487425e-001	-3.540229e+000
3250035000	3.341851e-001	-3.546731e+001	8.072734e-001	-1.349160e+001	7.970114e-001	-1.292076e+001	3.395843e-001	-8.426200e+000
3275034500	3.197924e-001	-4.216747e+001	8.205301e-001	-1.816470e+001	8.123286e-001	-1.768872e+001	3.259515e-001	-1.308947e+001
3300034000	3.028120e-001	-4.845836e+001	8.411235e-001	-2.379236e+001	8.302085e-001	-2.338096e+001	3.093418e-001	-1.750137e+001
3325033500	2.831864e-001	-5.473150e+001	8.521806e-001	-3.033859e+001	8.391826e-001	-2.964934e+001	2.903166e-001	-2.159901e+001
3350033000	2.614390e-001	-6.108263e+001	8.469191e-001	-3.672176e+001	8.384517e-001	-3.559638e+001	2.687930e-001	-2.551427e+001
3375032500	2.363376e-001	-6.816296e+001	8.403369e-001	-4.208114e+001	8.409913e-001	-4.091908e+001	2.448621e-001	-2.949867e+001
3400032000	2.059891e-001	-7.533845e+001	8.472727e-001	-4.713890e+001	8.533631e-001	-4.642582e+001	2.165330e-001	-3.245850e+001
3425031500	1.734142e-001	-8.233174e+001	8.622865e-001	-5.290706e+001	8.661089e-001	-5.260758e+001	1.870328e-001	-3.407815e+001
3450031000	1.383960e-001	-8.959623e+001	8.725279e-001	-5.930867e+001	8.726443e-001	-5.901815e+001	1.582842e-001	-3.350432e+001
3475030500	1.004535e-001	-9.679740e+001	8.745439e-001	-6.578580e+001	8.764340e-001	-6.528173e+001	1.310350e-001	-3.023283e+001
3500030000	6.113604e-002	-1.053780e+002	8.749879e-001	-7.202490e+001	8.815591e-001	-7.164598e+001	1.069963e-001	-2.112238e+001
3525029500	2.008246e-002	-1.171698e+002	8.756066e-001	-7.828947e+001	8.832520e-001	-7.828638e+001	9.367344e-002	-4.848350e+000
3550029000	2.243009e-002	7.091599e+001	8.755091e-001	-8.462371e+001	8.795326e-001	-8.487486e+001	9.875403e-002	1.383743e+001
3575028500	6.407760e-002	5.969237e+001	8.742950e-001	-9.105135e+001	8.745672e-001	-9.126313e+001	1.196051e-001	2.680584e+001
3600028000	1.059869e-001	5.181495e+001	8.697582e-001	-9.761186e+001	8.707437e-001	-9.771808e+001	1.478812e-001	3.309848e+001
3625027500	1.469049e-001	4.441562e+001	8.602486e-001	-1.041356e+002	8.627416e-001	-1.044038e+002	1.804285e-001	3.497764e+001
3650027000	1.863349e-001	3.726589e+001	8.467182e-001	-1.103536e+002	8.477624e-001	-1.109560e+002	2.143728e-001	3.401399e+001
3675026500	2.243424e-001	3.038069e+001	8.327030e-001	-1.163004e+002	8.270880e-001	-1.170718e+002	2.475807e-001	3.176464e+001
3700026000	2.613980e-001	2.341282e+001	8.185027e-001	-1.219169e+002	8.081760e-001	-1.224115e+002	2.811735e-001	2.825927e+001
3725025500	2.939937e-001	1.655712e+001	8.092245e-001	-1.271503e+002	8.003662e-001	-1.273476e+002	3.116487e-001	2.387735e+001
3750025000	3.234042e-001	9.976125e+000	8.092762e-001	-1.324656e+002	8.027542e-001	-1.328473e+002	3.388190e-001	1.939976e+001
3775024500	3.498458e-001	3.659264e+000	8.130791e-001	-1.387470e+002	8.004051e-001	-1.394978e+002	3.638223e-001	1.473919e+001
3800024000	3.727080e-001	-2.544615e+000	7.994515e-001	-1.457743e+002	7.745966e-001	-1.462007e+002	3.851075e-001	9.832820e+000
3825023500	3.943364e-001	-8.477228e+000	7.653957e-001	-1.516298e+002	7.389803e-001	-1.508423e+002	4.046914e-001	5.238662e+000
3850023000	4.152720e-001	-1.483155e+001	7.391908e-001	-1.552313e+002	7.257585e-001	-1.536631e+002	4.246022e-001	-1.619600e-001
3875022500	4.276657e-001	-2.131767e+001	7.450206e-001	-1.583228e+002	7.439498e-001	-1.571210e+002	4.350219e-001	-5.725647e+000
3900022000	4.354125e-001	-2.692506e+001	7.690753e-001	-1.632812e+002	7.695580e-001	-1.628285e+002	4.411657e-001	-1.060644e+001
3925021500	4.454093e-001	-3.241531e+001	7.809073e-001	-1.701052e+002	7.743898e-001	-1.699468e+002	4.486334e-001	-1.549214e+001
3950021000	4.518291e-001	-3.814224e+001	7.664755e-001	-1.768096e+002	7.557312e-001	-1.763476e+002	4.534542e-001	-2.054120e+001
