!Agilent Technologies,E5071C,MY46101917,A.08.10
!Date: Mon Jan 01 05:27:25 2001
!Data & Calibration Information:
!Freq	S11:SOLT2(ON)	S21:SOLT2(ON)	S12:SOLT2(ON)	S22:SOLT2(ON)
# Hz S dB R 50
100000	-5.858552e+001	6.904766e+001	-7.664866e-003	-2.085039e-003	-5.273786e-003	-2.224423e-002	-5.910994e+001	-3.861010e+001
25099500	-5.684614e+001	9.136961e+001	-3.851311e-003	-2.187320e+000	-5.819483e-003	-2.168647e+000	-5.697491e+001	1.030634e+002
50099000	-4.948356e+001	9.028579e+001	-7.340554e-003	-4.344903e+000	-6.826953e-003	-4.357229e+000	-4.963156e+001	8.410500e+001
75098500	-4.438206e+001	9.393649e+001	-6.858837e-003	-6.501993e+000	-9.230962e-003	-6.500403e+000	-4.481398e+001	8.786206e+001
100098000	-4.195466e+001	9.051072e+001	-1.007613e-002	-8.656914e+000	-1.278030e-002	-8.651652e+000	-4.217589e+001	8.450919e+001
125097500	-3.991672e+001	8.728436e+001	-1.209872e-002	-1.080745e+001	-1.554458e-002	-1.080960e+001	-3.968375e+001	8.327803e+001
150097000	-3.820045e+001	8.523745e+001	-1.798195e-002	-1.295152e+001	-1.565611e-002	-1.296185e+001	-3.840055e+001	8.007981e+001
175096500	-3.664741e+001	8.101924e+001	-2.166271e-002	-1.510431e+001	-2.269457e-002	-1.509197e+001	-3.701961e+001	7.809204e+001
200096000	-3.551774e+001	7.914632e+001	-2.516503e-002	-1.723008e+001	-2.356103e-002	-1.724652e+001	-3.599673e+001	7.278856e+001
225095500	-3.441271e+001	7.685490e+001	-2.636853e-002	-1.938291e+001	-2.736463e-002	-1.935939e+001	-3.481644e+001	7.229041e+001
250095000	-3.351355e+001	7.501478e+001	-2.853359e-002	-2.153131e+001	-3.011259e-002	-2.152799e+001	-3.390869e+001	6.854700e+001
275094500	-3.260366e+001	7.156814e+001	-3.461857e-002	-2.367720e+001	-3.327195e-002	-2.367502e+001	-3.311459e+001	6.477823e+001
300094000	-3.194500e+001	6.963734e+001	-3.734371e-002	-2.580258e+001	-3.388130e-002	-2.580997e+001	-3.238676e+001	6.355094e+001
325093500	-3.134911e+001	6.524078e+001	-3.899900e-002	-2.795051e+001	-3.674404e-002	-2.795843e+001	-3.153288e+001	6.111838e+001
350093000	-3.061753e+001	6.352234e+001	-4.124727e-002	-3.011230e+001	-4.385325e-002	-3.012755e+001	-3.110946e+001	6.011477e+001
375092500	-3.014608e+001	5.879145e+001	-4.565102e-002	-3.224366e+001	-5.304458e-002	-3.225658e+001	-3.071149e+001	5.633797e+001
400092000	-2.983860e+001	5.632332e+001	-5.431872e-002	-3.434928e+001	-5.486418e-002	-3.435949e+001	-3.032314e+001	5.303744e+001
425091500	-2.961393e+001	5.391419e+001	-5.582577e-002	-3.645911e+001	-5.652164e-002	-3.645299e+001	-3.025266e+001	4.985365e+001
450091000	-2.920756e+001	5.239861e+001	-5.380586e-002	-3.860255e+001	-5.419425e-002	-3.859859e+001	-2.964211e+001	4.780889e+001
475090500	-2.891483e+001	4.919330e+001	-5.559067e-002	-4.074933e+001	-5.862605e-002	-4.076472e+001	-2.925854e+001	4.499388e+001
500090000	-2.844707e+001	4.645021e+001	-6.499917e-002	-4.290905e+001	-6.469372e-002	-4.291753e+001	-2.872429e+001	4.130980e+001
525089500	-2.796962e+001	4.352486e+001	-6.990024e-002	-4.503493e+001	-7.206473e-002	-4.505790e+001	-2.849141e+001	3.947702e+001
550089000	-2.782603e+001	4.045434e+001	-7.664504e-002	-4.716379e+001	-7.349295e-002	-4.716310e+001	-2.810599e+001	3.631062e+001
575088500	-2.748944e+001	3.689403e+001	-7.935713e-002	-4.928255e+001	-7.791355e-002	-4.929457e+001	-2.775391e+001	3.451536e+001
600088000	-2.726196e+001	3.500599e+001	-8.316394e-002	-5.140746e+001	-8.532477e-002	-5.142841e+001	-2.754921e+001	3.075148e+001
625087500	-2.723427e+001	3.189542e+001	-8.877713e-002	-5.354221e+001	-9.087623e-002	-5.356886e+001	-2.754652e+001	2.690523e+001
650087000	-2.721183e+001	2.883436e+001	-9.627805e-002	-5.565088e+001	-9.809096e-002	-5.564192e+001	-2.751948e+001	2.228213e+001
675086500	-2.703663e+001	2.717843e+001	-9.859929e-002	-5.775619e+001	-9.911059e-002	-5.776535e+001	-2.749536e+001	2.038314e+001
700086000	-2.689667e+001	2.578891e+001	-9.977306e-002	-5.986985e+001	-1.012365e-001	-5.987180e+001	-2.723065e+001	1.700573e+001
725085500	-2.673173e+001	2.323875e+001	-1.024818e-001	-6.197227e+001	-1.039409e-001	-6.197947e+001	-2.701621e+001	1.431171e+001
750085000	-2.657679e+001	2.025051e+001	-1.057295e-001	-6.412202e+001	-1.055656e-001	-6.410222e+001	-2.707311e+001	1.166858e+001
775084500	-2.650023e+001	1.835116e+001	-1.072317e-001	-6.622705e+001	-1.098203e-001	-6.622472e+001	-2.700681e+001	1.031600e+001
800084000	-2.638042e+001	1.597654e+001	-1.103789e-001	-6.833773e+001	-1.132643e-001	-6.834429e+001	-2.681907e+001	8.201929e+000
825083500	-2.630236e+001	1.452422e+001	-1.147695e-001	-7.048163e+001	-1.142611e-001	-7.048678e+001	-2.697189e+001	5.025572e+000
850083000	-2.623016e+001	1.251824e+001	-1.166563e-001	-7.258675e+001	-1.180071e-001	-7.260499e+001	-2.708071e+001	3.185220e+000
875082500	-2.642991e+001	1.019252e+001	-1.188673e-001	-7.471124e+001	-1.168688e-001	-7.470505e+001	-2.730827e+001	4.629479e-002
900082000	-2.646562e+001	7.880856e+000	-1.196292e-001	-7.682719e+001	-1.193268e-001	-7.684493e+001	-2.747323e+001	-1.468342e+000
925081500	-2.644815e+001	5.221320e+000	-1.181478e-001	-7.898693e+001	-1.209176e-001	-7.898876e+001	-2.727307e+001	-3.775102e+000
950081000	-2.659566e+001	2.963951e+000	-1.259262e-001	-8.112489e+001	-1.262075e-001	-8.113917e+001	-2.735843e+001	-6.098071e+000
975080500	-2.650652e+001	4.726307e-001	-1.286209e-001	-8.326849e+001	-1.321837e-001	-8.326194e+001	-2.736386e+001	-7.858871e+000
1000080000	-2.667034e+001	-3.294044e+000	-1.345860e-001	-8.537491e+001	-1.373435e-001	-8.538615e+001	-2.743068e+001	-9.144887e+000
1025079500	-2.680637e+001	-5.021034e+000	-1.398945e-001	-8.747851e+001	-1.434064e-001	-8.747541e+001	-2.760076e+001	-1.013251e+001
1050079000	-2.705067e+001	-6.997594e+000	-1.407106e-001	-8.957853e+001	-1.402317e-001	-8.957195e+001	-2.796834e+001	-1.095875e+001
1075078500	-2.714856e+001	-8.619551e+000	-1.395197e-001	-9.170546e+001	-1.358661e-001	-9.171509e+001	-2.825083e+001	-1.349370e+001
1100078000	-2.731532e+001	-9.895939e+000	-1.394862e-001	-9.386009e+001	-1.401627e-001	-9.386042e+001	-2.846003e+001	-1.231462e+001
1125077500	-2.763908e+001	-1.127460e+001	-1.430591e-001	-9.598675e+001	-1.433586e-001	-9.601998e+001	-2.878421e+001	-1.490563e+001
1150077000	-2.781960e+001	-1.319925e+001	-1.465767e-001	-9.814011e+001	-1.475783e-001	-9.814153e+001	-2.894510e+001	-1.706298e+001
1175076500	-2.792921e+001	-1.540769e+001	-1.516030e-001	-1.002730e+002	-1.494528e-001	-1.002582e+002	-2.930973e+001	-1.867707e+001
1200076000	-2.823030e+001	-1.682164e+001	-1.523677e-001	-1.024018e+002	-1.504031e-001	-1.023978e+002	-2.958032e+001	-1.911303e+001
1225075500	-2.878058e+001	-2.021891e+001	-1.553556e-001	-1.045355e+002	-1.542397e-001	-1.045344e+002	-2.972256e+001	-2.120023e+001
1250075000	-2.901584e+001	-2.050877e+001	-1.602547e-001	-1.066813e+002	-1.604148e-001	-1.066895e+002	-3.000283e+001	-2.019603e+001
1275074500	-2.946151e+001	-2.151588e+001	-1.641028e-001	-1.088116e+002	-1.620514e-001	-1.088217e+002	-3.047059e+001	-2.215688e+001
1300074000	-3.003525e+001	-2.244387e+001	-1.691457e-001	-1.109571e+002	-1.677224e-001	-1.109668e+002	-3.103860e+001	-2.072931e+001
1325073500	-3.081406e+001	-2.185575e+001	-1.784732e-001	-1.130786e+002	-1.762679e-001	-1.130846e+002	-3.156221e+001	-2.319146e+001
1350073000	-3.144221e+001	-2.078464e+001	-1.770014e-001	-1.152063e+002	-1.805718e-001	-1.152070e+002	-3.250099e+001	-2.243583e+001
1375072500	-3.197878e+001	-1.970287e+001	-1.843873e-001	-1.173353e+002	-1.850914e-001	-1.173449e+002	-3.301140e+001	-2.412464e+001
1400072000	-3.250076e+001	-2.087263e+001	-1.881922e-001	-1.194440e+002	-1.868098e-001	-1.194497e+002	-3.368415e+001	-2.437851e+001
1425071500	-3.310086e+001	-1.895231e+001	-1.940179e-001	-1.215872e+002	-1.897545e-001	-1.215893e+002	-3.429361e+001	-2.179431e+001
1450071000	-3.413109e+001	-1.711470e+001	-1.990403e-001	-1.237089e+002	-1.950383e-001	-1.237453e+002	-3.463107e+001	-1.755126e+001
1475070500	-3.468347e+001	-1.150174e+001	-2.025845e-001	-1.258485e+002	-1.998752e-001	-1.258563e+002	-3.476197e+001	-1.705841e+001
1500070000	-3.471288e+001	-1.086688e+001	-2.040026e-001	-1.279571e+002	-2.071934e-001	-1.279623e+002	-3.488314e+001	-9.844384e+000
1525069500	-3.587982e+001	-3.703199e+000	-2.080323e-001	-1.300808e+002	-2.091308e-001	-1.300830e+002	-3.541972e+001	-4.185891e+000
1550069000	-3.651753e+001	2.081605e+000	-2.128026e-001	-1.322078e+002	-2.110263e-001	-1.322008e+002	-3.536221e+001	3.783824e+000
1575068500	-3.657029e+001	7.160486e+000	-2.191207e-001	-1.343432e+002	-2.161676e-001	-1.343301e+002	-3.526063e+001	6.476049e+000
1600068000	-3.690365e+001	1.477467e+001	-2.225371e-001	-1.364058e+002	-2.190278e-001	-1.364362e+002	-3.532070e+001	1.036689e+001
1625067500	-3.702739e+001	1.939307e+001	-2.189653e-001	-1.385309e+002	-2.172268e-001	-1.385546e+002	-3.495172e+001	1.553757e+001
1650067000	-3.718582e+001	2.524878e+001	-2.129386e-001	-1.407001e+002	-2.140006e-001	-1.406916e+002	-3.482067e+001	1.535129e+001
1675066500	-3.697064e+001	3.507005e+001	-2.186177e-001	-1.428827e+002	-2.185416e-001	-1.428669e+002	-3.439501e+001	1.864779e+001
1700066000	-3.655890e+001	4.231578e+001	-2.285822e-001	-1.450170e+002	-2.259157e-001	-1.450072e+002	-3.371841e+001	2.243349e+001
1725065500	-3.554428e+001	4.797397e+001	-2.308059e-001	-1.471262e+002	-2.286075e-001	-1.471478e+002	-3.308829e+001	2.435363e+001
1750065000	-3.446704e+001	5.212165e+001	-2.378068e-001	-1.492487e+002	-2.320433e-001	-1.492694e+002	-3.226968e+001	2.567862e+001
1775064500	-3.347074e+001	5.239768e+001	-2.371149e-001	-1.513948e+002	-2.341835e-001	-1.514089e+002	-3.192310e+001	2.799294e+001
1800064000	-3.266486e+001	5.236314e+001	-2.435934e-001	-1.535187e+002	-2.417445e-001	-1.535377e+002	-3.131134e+001	2.661820e+001
1825063500	-3.199943e+001	5.342032e+001	-2.457702e-001	-1.556502e+002	-2.452959e-001	-1.556597e+002	-3.098564e+001	2.669141e+001
1850063000	-3.123965e+001	5.335507e+001	-2.415384e-001	-1.577922e+002	-2.450816e-001	-1.577843e+002	-3.063033e+001	2.685132e+001
1875062500	-3.051523e+001	5.243540e+001	-2.474898e-001	-1.599526e+002	-2.414505e-001	-1.599299e+002	-3.001411e+001	2.556451e+001
1900062000	-2.986977e+001	5.111131e+001	-2.544159e-001	-1.621452e+002	-2.444497e-001	-1.621429e+002	-2.964377e+001	2.457583e+001
1925061500	-2.934466e+001	4.947230e+001	-2.719869e-001	-1.642611e+002	-2.598126e-001	-1.642924e+002	-2.924650e+001	2.338037e+001
1950061000	-2.889984e+001	4.793080e+001	-2.759324e-001	-1.663218e+002	-2.713985e-001	-1.664252e+002	-2.864833e+001	2.309279e+001
1975060500	-2.840759e+001	4.539263e+001	-2.753868e-001	-1.684119e+002	-2.804478e-001	-1.684676e+002	-2.841575e+001	2.208268e+001
2000060000	-2.795579e+001	4.352675e+001	-2.646666e-001	-1.705387e+002	-2.764231e-001	-1.705265e+002	-2.799004e+001	2.147947e+001
2025059500	-2.758588e+001	4.223762e+001	-2.577969e-001	-1.727478e+002	-2.643282e-001	-1.726419e+002	-2.774468e+001	2.060167e+001
2050059000	-2.717997e+001	4.001731e+001	-2.644787e-001	-1.749563e+002	-2.524281e-001	-1.748380e+002	-2.748214e+001	1.899550e+001
2075058500	-2.692087e+001	3.891826e+001	-2.806487e-001	-1.771362e+002	-2.544218e-001	-1.770945e+002	-2.723851e+001	1.737386e+001
2100058000	-2.647120e+001	3.737087e+001	-2.925927e-001	-1.792336e+002	-2.662824e-001	-1.793021e+002	-2.687026e+001	1.634448e+001
2125057500	-2.610938e+001	3.557020e+001	-2.939808e-001	1.787162e+002	-2.864978e-001	1.785426e+002	-2.661888e+001	1.350949e+001
2150057000	-2.591626e+001	3.300821e+001	-2.921184e-001	1.765945e+002	-3.011128e-001	1.764928e+002	-2.642586e+001	1.198667e+001
2175056500	-2.564818e+001	3.092221e+001	-2.836259e-001	1.744051e+002	-2.955018e-001	1.744644e+002	-2.618428e+001	9.866270e+000
2200056000	-2.536927e+001	2.879909e+001	-2.892264e-001	1.722132e+002	-2.823799e-001	1.723361e+002	-2.604541e+001	8.565824e+000
2225055500	-2.528330e+001	2.662232e+001	-2.943195e-001	1.700435e+002	-2.724973e-001	1.701112e+002	-2.586732e+001	7.029777e+000
2250055000	-2.506585e+001	2.470673e+001	-3.022466e-001	1.678965e+002	-2.721254e-001	1.678879e+002	-2.580347e+001	4.697922e+000
2275054500	-2.488426e+001	2.268421e+001	-3.024748e-001	1.657498e+002	-2.795492e-001	1.656616e+002	-2.570302e+001	3.077703e+000
2300054000	-2.469914e+001	2.029999e+001	-3.087351e-001	1.635755e+002	-2.927952e-001	1.634352e+002	-2.558814e+001	9.764476e-001
2325053500	-2.446173e+001	1.773839e+001	-3.208740e-001	1.613795e+002	-3.116999e-001	1.612398e+002	-2.547993e+001	-8.551788e-001
2350053000	-2.431088e+001	1.526518e+001	-3.330800e-001	1.592733e+002	-3.363428e-001	1.591890e+002	-2.534357e+001	-2.764410e+000
2375052500	-2.430270e+001	1.218893e+001	-3.374639e-001	1.572222e+002	-3.359489e-001	1.572140e+002	-2.534165e+001	-4.491736e+000
2400052000	-2.423403e+001	8.454391e+000	-3.210926e-001	1.550752e+002	-3.072690e-001	1.550824e+002	-2.526229e+001	-7.125399e+000
2425051500	-2.429998e+001	6.066684e+000	-3.153968e-001	1.527977e+002	-2.893324e-001	1.527519e+002	-2.531197e+001	-8.794456e+000
2450051000	-2.434440e+001	3.967165e+000	-3.365308e-001	1.505093e+002	-3.126667e-001	1.503281e+002	-2.538970e+001	-1.038315e+001
2475050500	-2.432083e+001	1.895014e+000	-3.695485e-001	1.483913e+002	-3.628677e-001	1.481326e+002	-2.548280e+001	-1.260027e+001
2500050000	-2.421676e+001	-5.638162e-001	-3.866513e-001	1.464007e+002	-4.005552e-001	1.462087e+002	-2.542815e+001	-1.501393e+001
2525049500	-2.423900e+001	-3.512885e+000	-3.777472e-001	1.443987e+002	-3.933710e-001	1.443633e+002	-2.547079e+001	-1.745590e+001
2550049000	-2.432328e+001	-6.133302e+000	-3.565230e-001	1.422822e+002	-3.615184e-001	1.423279e+002	-2.557037e+001	-1.920558e+001
2575048500	-2.431747e+001	-8.994467e+000	-3.476300e-001	1.400232e+002	-3.278387e-001	1.400712e+002	-2.559292e+001	-2.111882e+001
2600048000	-2.444930e+001	-1.251154e+001	-3.513905e-001	1.377462e+002	-3.191241e-001	1.376573e+002	-2.568446e+001	-2.227656e+001
2625047500	-2.463950e+001	-1.394402e+001	-3.727695e-001	1.354676e+002	-3.459569e-001	1.352569e+002	-2.589155e+001	-2.397721e+001
2650047000	-2.478606e+001	-1.678719e+001	-4.039585e-001	1.333543e+002	-3.954175e-001	1.330512e+002	-2.590554e+001	-2.512682e+001
2675046500	-2.478731e+001	-1.841999e+001	-4.253645e-001	1.313860e+002	-4.397595e-001	1.310644e+002	-2.603871e+001	-2.783077e+001
2700046000	-2.513304e+001	-2.187488e+001	-4.178792e-001	1.294434e+002	-4.460759e-001	1.293019e+002	-2.623812e+001	-3.036670e+001
2725045500	-2.530028e+001	-2.454841e+001	-3.795567e-001	1.273632e+002	-4.007740e-001	1.273623e+002	-2.660391e+001	-3.141740e+001
2750045000	-2.548460e+001	-2.721314e+001	-3.590132e-001	1.249858e+002	-3.521428e-001	1.250362e+002	-2.676268e+001	-3.344407e+001
2775044500	-2.566370e+001	-3.034845e+001	-3.724974e-001	1.225593e+002	-3.476783e-001	1.224898e+002	-2.690375e+001	-3.368328e+001
2800044000	-2.595319e+001	-3.132648e+001	-4.129449e-001	1.203540e+002	-3.985761e-001	1.201072e+002	-2.713455e+001	-3.404893e+001
2825043500	-2.608763e+001	-3.428792e+001	-4.483823e-001	1.183219e+002	-4.555796e-001	1.180412e+002	-2.721549e+001	-3.443531e+001
2850043000	-2.652747e+001	-3.692127e+001	-4.551976e-001	1.163870e+002	-4.772194e-001	1.162111e+002	-2.750289e+001	-3.721041e+001
2875042500	-2.696650e+001	-3.910738e+001	-4.361688e-001	1.143490e+002	-4.575703e-001	1.142664e+002	-2.783571e+001	-3.678061e+001
2900042000	-2.738957e+001	-3.965625e+001	-4.117241e-001	1.121968e+002	-4.280327e-001	1.121476e+002	-2.822853e+001	-3.721260e+001
2925041500	-2.781262e+001	-4.302039e+001	-3.991973e-001	1.099112e+002	-4.046197e-001	1.098766e+002	-2.841267e+001	-3.699661e+001
2950041000	-2.811725e+001	-4.587423e+001	-4.037517e-001	1.076026e+002	-4.112660e-001	1.075062e+002	-2.881660e+001	-3.712906e+001
2975040500	-2.876751e+001	-4.757658e+001	-4.244850e-001	1.053244e+002	-4.366780e-001	1.052427e+002	-2.887228e+001	-3.479245e+001
3000040000	-2.933097e+001	-4.959143e+001	-4.510178e-001	1.031403e+002	-4.694117e-001	1.031098e+002	-2.902845e+001	-3.420054e+001
3025039500	-2.991782e+001	-5.330147e+001	-4.715040e-001	1.011317e+002	-4.836483e-001	1.011580e+002	-2.914782e+001	-3.386140e+001
3050039000	-3.067645e+001	-5.402187e+001	-4.644069e-001	9.912706e+001	-4.696105e-001	9.914112e+001	-2.953677e+001	-3.203310e+001
3075038500	-3.130934e+001	-5.684208e+001	-4.455141e-001	9.700051e+001	-4.447135e-001	9.698031e+001	-2.974973e+001	-3.057941e+001
3100038000	-3.253426e+001	-5.733296e+001	-4.315830e-001	9.471447e+001	-4.361476e-001	9.470576e+001	-2.994488e+001	-2.805627e+001
3125037500	-3.350294e+001	-6.003446e+001	-4.365480e-001	9.239623e+001	-4.469630e-001	9.241513e+001	-3.012396e+001	-2.675792e+001
3150037000	-3.513291e+001	-6.201578e+001	-4.565654e-001	9.017087e+001	-4.571578e-001	9.023250e+001	-3.027959e+001	-2.498793e+001
3175036500	-3.657887e+001	-6.237552e+001	-4.714825e-001	8.800821e+001	-4.650323e-001	8.806748e+001	-3.019052e+001	-2.351815e+001
3200036000	-3.938773e+001	-6.318177e+001	-4.860561e-001	8.585912e+001	-4.674113e-001	8.592301e+001	-3.033070e+001	-2.130375e+001
3225035500	-4.437356e+001	-5.641344e+001	-4.951901e-001	8.372854e+001	-4.687728e-001	8.371914e+001	-3.055779e+001	-1.811396e+001
3250035000	-4.981281e+001	-2.536643e+001	-4.993145e-001	8.161204e+001	-4.765235e-001	8.153093e+001	-3.024454e+001	-1.412995e+001
3275034500	-4.687569e+001	2.844538e+001	-4.966715e-001	7.946563e+001	-4.819766e-001	7.936680e+001	-3.018156e+001	-1.399663e+001
3300034000	-4.296273e+001	4.488620e+001	-4.878260e-001	7.728827e+001	-4.863351e-001	7.717898e+001	-2.980133e+001	-1.108995e+001
3325033500	-4.032475e+001	5.436660e+001	-4.892771e-001	7.506664e+001	-4.880770e-001	7.500089e+001	-2.957762e+001	-9.456670e+000
3350033000	-3.790618e+001	5.572121e+001	-4.986503e-001	7.279775e+001	-4.855934e-001	7.280750e+001	-2.927070e+001	-5.649996e+000
3375032500	-3.640430e+001	6.110465e+001	-5.201780e-001	7.061702e+001	-4.888057e-001	7.055754e+001	-2.906891e+001	-4.616772e+000
3400032000	-3.443194e+001	6.211964e+001	-5.336532e-001	6.848341e+001	-5.009556e-001	6.832413e+001	-2.863228e+001	-2.827164e+000
3425031500	-3.338461e+001	6.362535e+001	-5.312826e-001	6.640163e+001	-5.076991e-001	6.616276e+001	-2.836051e+001	-3.178104e+000
3450031000	-3.231014e+001	6.433897e+001	-5.268192e-001	6.420225e+001	-5.116705e-001	6.397797e+001	-2.789955e+001	-2.940028e+000
3475030500	-3.128455e+001	6.184019e+001	-5.324048e-001	6.194535e+001	-5.140940e-001	6.172353e+001	-2.764863e+001	-4.183205e+000
3500030000	-3.045538e+001	6.107531e+001	-5.466881e-001	5.975311e+001	-5.255452e-001	5.946109e+001	-2.724293e+001	-4.280959e+000
3525029500	-2.955728e+001	5.871420e+001	-5.556150e-001	5.760416e+001	-5.463492e-001	5.725955e+001	-2.681284e+001	-4.591086e+000
3550029000	-2.899183e+001	5.605833e+001	-5.529987e-001	5.543004e+001	-5.587585e-001	5.513104e+001	-2.638705e+001	-4.899569e+000
3575028500	-2.822818e+001	5.491354e+001	-5.539482e-001	5.315709e+001	-5.616151e-001	5.298238e+001	-2.593952e+001	-5.351473e+000
3600028000	-2.748033e+001	5.335401e+001	-5.700180e-001	5.090456e+001	-5.608349e-001	5.076413e+001	-2.568454e+001	-6.150157e+000
3625027500	-2.694281e+001	5.055609e+001	-5.914317e-001	4.870936e+001	-5.673486e-001	4.843424e+001	-2.547025e+001	-7.800240e+000
3650027000	-2.636164e+001	4.889279e+001	-6.068893e-001	4.658522e+001	-5.929054e-001	4.616319e+001	-2.522832e+001	-9.595954e+000
3675026500	-2.585993e+001	4.609736e+001	-6.208546e-001	4.445666e+001	-6.238677e-001	4.397014e+001	-2.507132e+001	-1.118505e+001
3700026000	-2.528904e+001	4.321848e+001	-6.255415e-001	4.237823e+001	-6.535182e-001	4.188271e+001	-2.483146e+001	-1.295048e+001
3725025500	-2.483601e+001	4.047871e+001	-6.243778e-001	4.026287e+001	-6.653998e-001	3.987458e+001	-2.460754e+001	-1.416694e+001
3750025000	-2.449079e+001	3.705420e+001	-6.118890e-001	3.805621e+001	-6.484599e-001	3.780995e+001	-2.432949e+001	-1.531593e+001
3775024500	-2.421330e+001	3.441999e+001	-6.049050e-001	3.568157e+001	-6.261138e-001	3.548626e+001	-2.407611e+001	-1.633866e+001
3800024000	-2.392133e+001	3.191143e+001	-6.373516e-001	3.330525e+001	-6.445696e-001	3.299915e+001	-2.391344e+001	-1.784520e+001
