!Agilent Technologies,E5071C,MY46101917,A.08.10
!Date: Mon Jan 01 06:11:59 2001
!Data & Calibration Information:
!Freq	S11:SOLT2(ON)	S21:SOLT2(ON)	S12:SOLT2(ON)	S22:SOLT2(ON)
# Hz S RI R 50
100000	5.144205e-004	2.062740e-004	1.000037e+000	-1.218097e-003	9.993677e-001	-1.784736e-004	5.724684e-004	-3.313319e-004
25099500	-2.180458e-003	-1.805986e-002	9.932805e-001	-1.027263e-001	9.932494e-001	-1.021738e-001	-3.484768e-003	-1.745375e-002
50099000	-7.984326e-003	-3.414244e-002	9.767951e-001	-2.025607e-001	9.766004e-001	-2.026571e-001	-1.102340e-002	-3.333673e-002
75098500	-1.632440e-002	-4.836478e-002	9.498555e-001	-3.004365e-001	9.498325e-001	-2.998978e-001	-2.393164e-002	-4.548508e-002
100098000	-2.751150e-002	-6.161335e-002	9.129883e-001	-3.938087e-001	9.128169e-001	-3.933699e-001	-3.932529e-002	-5.523189e-002
125097500	-4.110294e-002	-7.316573e-002	8.668499e-001	-4.828195e-001	8.666964e-001	-4.825980e-001	-5.803798e-002	-6.098797e-002
150097000	-5.640903e-002	-8.255197e-002	8.121057e-001	-5.658624e-001	8.120462e-001	-5.659005e-001	-7.924611e-002	-6.301423e-002
175096500	-7.370248e-002	-8.935592e-002	7.495244e-001	-6.435029e-001	7.492636e-001	-6.426615e-001	-1.011875e-001	-5.970795e-002
200096000	-9.281191e-002	-9.430302e-002	6.788393e-001	-7.138592e-001	6.789365e-001	-7.133298e-001	-1.232917e-001	-5.282452e-002
225095500	-1.135559e-001	-9.499260e-002	6.017413e-001	-7.763167e-001	6.022429e-001	-7.749761e-001	-1.451747e-001	-3.982343e-002
250095000	-1.360647e-001	-9.319811e-002	5.183468e-001	-8.290090e-001	5.191857e-001	-8.282102e-001	-1.657734e-001	-2.262913e-002
275094500	-1.581909e-001	-8.748774e-002	4.316076e-001	-8.713386e-001	4.318514e-001	-8.712721e-001	-1.836771e-001	-1.544225e-003
300094000	-1.812452e-001	-7.792104e-002	3.436253e-001	-9.055261e-001	3.437972e-001	-9.051384e-001	-1.990274e-001	2.441812e-002
325093500	-2.032740e-001	-6.627613e-002	2.524754e-001	-9.336207e-001	2.536218e-001	-9.322008e-001	-2.103076e-001	5.337567e-002
350093000	-2.241651e-001	-4.842107e-002	1.555914e-001	-9.516537e-001	1.583033e-001	-9.511061e-001	-2.176658e-001	8.535727e-002
375092500	-2.432029e-001	-2.922315e-002	5.741121e-002	-9.551798e-001	5.998566e-002	-9.561560e-001	-2.207978e-001	1.173738e-001
400092000	-2.602400e-001	-4.570845e-003	-3.415023e-002	-9.472495e-001	-3.406056e-002	-9.492098e-001	-2.187081e-001	1.509675e-001
425091500	-2.730499e-001	2.288636e-002	-1.206416e-001	-9.350307e-001	-1.216137e-001	-9.346664e-001	-2.113406e-001	1.846744e-001
450091000	-2.816230e-001	5.273556e-002	-2.081844e-001	-9.187505e-001	-2.069289e-001	-9.163741e-001	-1.973008e-001	2.176186e-001
475090500	-2.878156e-001	8.452112e-002	-2.979969e-001	-8.920482e-001	-2.930906e-001	-8.908496e-001	-1.790098e-001	2.489860e-001
500090000	-2.887874e-001	1.183737e-001	-3.839631e-001	-8.519815e-001	-3.783018e-001	-8.553722e-001	-1.551369e-001	2.764610e-001
525089500	-2.836601e-001	1.528244e-001	-4.605790e-001	-8.026077e-001	-4.570726e-001	-8.091639e-001	-1.295289e-001	3.024140e-001
550089000	-2.748303e-001	1.879542e-001	-5.266895e-001	-7.497243e-001	-5.275684e-001	-7.569665e-001	-9.947160e-002	3.237692e-001
575088500	-2.607737e-001	2.216053e-001	-5.877785e-001	-6.963659e-001	-5.921594e-001	-7.016927e-001	-6.631537e-002	3.411665e-001
600088000	-2.406063e-001	2.533282e-001	-6.468982e-001	-6.411307e-001	-6.519495e-001	-6.426543e-001	-3.228720e-002	3.534231e-001
625087500	-2.164402e-001	2.826296e-001	-7.052738e-001	-5.788316e-001	-7.084634e-001	-5.786676e-001	2.869224e-003	3.605029e-001
650087000	-1.873708e-001	3.078245e-001	-7.563097e-001	-5.066681e-001	-7.588900e-001	-5.066460e-001	3.897553e-002	3.632909e-001
675086500	-1.546932e-001	3.286044e-001	-7.963248e-001	-4.301247e-001	-7.992962e-001	-4.302271e-001	7.561945e-002	3.601660e-001
700086000	-1.182081e-001	3.454217e-001	-8.276866e-001	-3.550656e-001	-8.303561e-001	-3.536396e-001	1.107161e-001	3.524919e-001
725085500	-7.927104e-002	3.553365e-001	-8.548369e-001	-2.811418e-001	-8.557153e-001	-2.788935e-001	1.438649e-001	3.382548e-001
750085000	-3.952891e-002	3.590682e-001	-8.799851e-001	-2.041700e-001	-8.801590e-001	-2.027753e-001	1.730450e-001	3.215108e-001
775084500	1.482526e-003	3.571104e-001	-8.982808e-001	-1.199662e-001	-8.991597e-001	-1.197302e-001	2.003387e-001	3.010558e-001
800084000	4.173627e-002	3.484032e-001	-9.053127e-001	-3.413276e-002	-9.069400e-001	-3.381509e-002	2.222505e-001	2.772597e-001
825083500	7.953532e-002	3.328864e-001	-9.040723e-001	4.964763e-002	-9.057936e-001	5.019169e-002	2.396426e-001	2.511605e-001
850083000	1.149854e-001	3.123522e-001	-8.975131e-001	1.312380e-001	-8.999574e-001	1.323990e-001	2.522928e-001	2.232579e-001
875082500	1.468434e-001	2.855886e-001	-8.863805e-001	2.132142e-001	-8.889171e-001	2.151266e-001	2.599781e-001	1.954473e-001
900082000	1.741661e-001	2.538529e-001	-8.689979e-001	2.969028e-001	-8.701801e-001	3.004925e-001	2.626311e-001	1.681132e-001
925081500	1.961273e-001	2.170501e-001	-8.427246e-001	3.828206e-001	-8.419684e-001	3.858017e-001	2.609347e-001	1.417067e-001
950081000	2.100489e-001	1.768189e-001	-8.053416e-001	4.679036e-001	-8.035127e-001	4.693920e-001	2.545803e-001	1.172629e-001
975080500	2.166674e-001	1.349710e-001	-7.567679e-001	5.486932e-001	-7.556287e-001	5.480010e-001	2.432899e-001	9.608982e-002
1000080000	2.155173e-001	9.114614e-002	-7.004661e-001	6.216381e-001	-7.008471e-001	6.206490e-001	2.292014e-001	7.885706e-002
1025079500	2.046249e-001	4.878710e-002	-6.384284e-001	6.898936e-001	-6.412758e-001	6.894495e-001	2.116401e-001	6.611335e-002
1050079000	1.854255e-001	9.393868e-003	-5.703097e-001	7.535418e-001	-5.727179e-001	7.561566e-001	1.916111e-001	5.832605e-002
1075078500	1.586008e-001	-2.578658e-002	-4.930741e-001	8.124965e-001	-4.932617e-001	8.157821e-001	1.717821e-001	5.544720e-002
1100078000	1.236466e-001	-5.556052e-002	-4.068392e-001	8.624483e-001	-4.058768e-001	8.639047e-001	1.522849e-001	5.955526e-002
1125077500	8.278318e-002	-7.728860e-002	-3.144095e-001	9.012045e-001	-3.154049e-001	9.018956e-001	1.346977e-001	6.743862e-002
1150077000	3.763095e-002	-8.993005e-002	-2.186788e-001	9.286811e-001	-2.209223e-001	9.312833e-001	1.203510e-001	8.062212e-002
1175076500	-8.879485e-003	-9.299743e-002	-1.198086e-001	9.447670e-001	-1.211428e-001	9.496848e-001	1.102660e-001	9.795290e-002
1200076000	-5.668841e-002	-8.554677e-002	-2.035908e-002	9.493078e-001	-1.918927e-002	9.539771e-001	1.050946e-001	1.190681e-001
1225075500	-1.028243e-001	-6.850313e-002	7.822715e-002	9.418546e-001	8.032754e-002	9.459984e-001	1.063636e-001	1.410216e-001
1250075000	-1.423821e-001	-4.099777e-002	1.736016e-001	9.232354e-001	1.766657e-001	9.268758e-001	1.133495e-001	1.644486e-001
1275074500	-1.767058e-001	-5.450588e-003	2.648700e-001	8.952871e-001	2.693796e-001	8.973713e-001	1.256551e-001	1.856172e-001
1300074000	-2.034290e-001	3.700024e-002	3.529075e-001	8.587077e-001	3.558591e-001	8.594738e-001	1.435223e-001	2.057288e-001
1325073500	-2.214384e-001	8.365304e-002	4.361066e-001	8.108390e-001	4.375210e-001	8.133790e-001	1.667283e-001	2.205012e-001
1350073000	-2.293764e-001	1.335238e-001	5.101406e-001	7.526156e-001	5.146626e-001	7.587887e-001	1.927735e-001	2.318090e-001
1375072500	-2.278724e-001	1.841173e-001	5.700590e-001	6.895856e-001	5.826328e-001	6.921344e-001	2.216041e-001	2.370989e-001
1400072000	-2.161700e-001	2.328956e-001	6.209862e-001	6.300803e-001	6.351483e-001	6.221927e-001	2.536321e-001	2.362557e-001
1425071500	-1.955219e-001	2.780946e-001	6.727380e-001	5.725967e-001	6.777908e-001	5.573097e-001	2.850251e-001	2.301822e-001
1450071000	-1.685989e-001	3.192775e-001	7.264511e-001	5.062413e-001	7.218372e-001	4.942793e-001	3.158720e-001	2.190849e-001
1475070500	-1.350535e-001	3.548699e-001	7.708311e-001	4.267660e-001	7.643102e-001	4.220488e-001	3.454594e-001	2.013566e-001
1500070000	-9.554250e-002	3.834702e-001	7.974896e-001	3.442453e-001	7.954778e-001	3.422239e-001	3.724925e-001	1.797680e-001
1525069500	-5.306092e-002	4.054870e-001	8.120838e-001	2.687954e-001	8.116809e-001	2.638180e-001	3.957468e-001	1.544451e-001
1550069000	-7.529484e-003	4.190728e-001	8.241848e-001	2.015815e-001	8.206811e-001	1.930743e-001	4.151472e-001	1.246700e-001
1575068500	3.951333e-002	4.242934e-001	8.406433e-001	1.354574e-001	8.287856e-001	1.278599e-001	4.287546e-001	9.094182e-002
1600068000	8.523654e-002	4.227920e-001	8.589469e-001	6.168293e-002	8.410759e-001	6.288475e-002	4.371647e-001	5.571260e-002
1625067500	1.307927e-001	4.147656e-001	8.672415e-001	-2.523850e-002	8.540143e-001	-1.123289e-002	4.418076e-001	1.904033e-002
1650067000	1.743990e-001	3.971162e-001	8.560687e-001	-1.125904e-001	8.561330e-001	-9.620016e-002	4.390815e-001	-1.841745e-002
1675066500	2.141623e-001	3.729369e-001	8.332406e-001	-1.874945e-001	8.408222e-001	-1.792738e-001	4.304558e-001	-5.446362e-002
1700066000	2.486652e-001	3.433203e-001	8.135181e-001	-2.528403e-001	8.189193e-001	-2.521613e-001	4.172788e-001	-8.926507e-002
1725065500	2.771026e-001	3.083469e-001	7.973267e-001	-3.222712e-001	7.985848e-001	-3.222062e-001	3.972675e-001	-1.210731e-001
1750065000	2.988609e-001	2.688330e-001	7.740183e-001	-3.996529e-001	7.747177e-001	-3.981365e-001	3.724304e-001	-1.492170e-001
1775064500	3.137704e-001	2.269218e-001	7.381375e-001	-4.761014e-001	7.377772e-001	-4.746600e-001	3.428203e-001	-1.732122e-001
1800064000	3.191871e-001	1.836536e-001	6.954240e-001	-5.482411e-001	6.935570e-001	-5.437538e-001	3.084389e-001	-1.916599e-001
1825063500	3.174122e-001	1.403796e-001	6.455042e-001	-6.206771e-001	6.482249e-001	-6.111246e-001	2.723820e-001	-2.030980e-001
1850063000	3.066215e-001	9.876036e-002	5.829272e-001	-6.895583e-001	5.955834e-001	-6.837070e-001	2.348204e-001	-2.084994e-001
1875062500	2.866819e-001	6.035933e-002	5.103885e-001	-7.469870e-001	5.234554e-001	-7.537425e-001	1.959940e-001	-2.055063e-001
1900062000	2.591601e-001	2.794932e-002	4.370508e-001	-7.948368e-001	4.391257e-001	-8.069678e-001	1.587125e-001	-1.937657e-001
1925061500	2.259649e-001	2.273218e-003	3.620880e-001	-8.402163e-001	3.553244e-001	-8.456846e-001	1.256133e-001	-1.735668e-001
1950061000	1.875746e-001	-1.515430e-002	2.769925e-001	-8.846750e-001	2.726947e-001	-8.807517e-001	9.577977e-002	-1.465945e-001
1975060500	1.457337e-001	-2.221439e-002	1.796503e-001	-9.175614e-001	1.825490e-001	-9.125409e-001	7.334931e-002	-1.138666e-001
2000060000	1.028907e-001	-1.899322e-002	7.710471e-002	-9.333888e-001	8.302152e-002	-9.332198e-001	5.873635e-002	-7.579878e-002
2025059500	6.202853e-002	-4.571796e-003	-2.354284e-002	-9.363174e-001	-2.010685e-002	-9.381728e-001	5.269167e-002	-3.593594e-002
2050059000	2.646464e-002	1.865342e-002	-1.241357e-001	-9.287656e-001	-1.209505e-001	-9.291187e-001	5.666507e-002	4.193942e-003
2075058500	-2.755903e-003	5.085042e-002	-2.249666e-001	-9.076598e-001	-2.191865e-001	-9.098811e-001	7.188856e-002	4.245568e-002
2100058000	-2.241692e-002	8.969673e-002	-3.205671e-001	-8.721131e-001	-3.168000e-001	-8.799041e-001	9.449081e-002	7.680587e-002
2125057500	-3.185557e-002	1.325147e-001	-4.072556e-001	-8.272089e-001	-4.107257e-001	-8.331903e-001	1.252336e-001	1.048373e-001
2150057000	-3.055337e-002	1.784683e-001	-4.876507e-001	-7.758009e-001	-4.916004e-001	-7.725532e-001	1.617048e-001	1.254298e-001
2175056500	-1.847670e-002	2.216441e-001	-5.637934e-001	-7.163933e-001	-5.567879e-001	-7.090830e-001	2.021919e-001	1.376334e-001
2200056000	1.939272e-003	2.620485e-001	-6.324970e-001	-6.462570e-001	-6.144214e-001	-6.486297e-001	2.433694e-001	1.412888e-001
2225055500	3.256045e-002	2.970400e-001	-6.876325e-001	-5.681122e-001	-6.724795e-001	-5.857608e-001	2.856156e-001	1.351736e-001
2250055000	6.860753e-002	3.244108e-001	-7.297158e-001	-4.898419e-001	-7.276383e-001	-5.144510e-001	3.254989e-001	1.214128e-001
2275054500	1.101277e-001	3.440180e-001	-7.659561e-001	-4.128053e-001	-7.747089e-001	-4.337674e-001	3.617750e-001	9.907722e-002
2300054000	1.542670e-001	3.552995e-001	-7.951564e-001	-3.298350e-001	-8.097461e-001	-3.453782e-001	3.934197e-001	7.113227e-002
2325053500	1.994087e-001	3.576687e-001	-8.093439e-001	-2.449004e-001	-8.269864e-001	-2.520339e-001	4.186202e-001	3.705111e-002
2350053000	2.438896e-001	3.519456e-001	-8.104912e-001	-1.711740e-001	-8.231315e-001	-1.695565e-001	4.374956e-001	-2.652136e-004
2375052500	2.859831e-001	3.383678e-001	-8.173423e-001	-1.081301e-001	-8.182830e-001	-1.094199e-001	4.496698e-001	-4.017404e-002
2400052000	3.260263e-001	3.176741e-001	-8.340864e-001	-3.452620e-002	-8.353147e-001	-5.385863e-002	4.548587e-001	-8.166270e-002
2425051500	3.623015e-001	2.895731e-001	-8.346539e-001	5.921064e-002	-8.622054e-001	3.246598e-002	4.526450e-001	-1.249978e-001
2450051000	3.905948e-001	2.549074e-001	-8.030845e-001	1.463947e-001	-8.519363e-001	1.470130e-001	4.397555e-001	-1.646360e-001
2475050500	4.119597e-001	2.200033e-001	-7.626204e-001	2.030794e-001	-7.964203e-001	2.369284e-001	4.250255e-001	-2.003835e-001
2500050000	4.316899e-001	1.807195e-001	-7.418487e-001	2.436024e-001	-7.418368e-001	2.810930e-001	4.061466e-001	-2.371203e-001
2525049500	4.423293e-001	1.358254e-001	-7.394727e-001	2.966613e-001	-7.225424e-001	3.096849e-001	3.766577e-001	-2.707868e-001
2550049000	4.441214e-001	9.208869e-002	-7.311680e-001	3.734734e-001	-7.268087e-001	3.626207e-001	3.437228e-001	-2.962096e-001
2575048500	4.400592e-001	4.764762e-002	-6.971700e-001	4.598380e-001	-7.201477e-001	4.501099e-001	3.067918e-001	-3.167934e-001
2600048000	4.260162e-001	4.031310e-003	-6.394798e-001	5.333160e-001	-6.751049e-001	5.500472e-001	2.653516e-001	-3.289645e-001
2625047500	4.035569e-001	-3.241026e-002	-5.738433e-001	5.841360e-001	-5.954548e-001	6.289830e-001	2.237666e-001	-3.317384e-001
2650047000	3.781752e-001	-6.519313e-002	-5.200560e-001	6.181299e-001	-5.083106e-001	6.697010e-001	1.849775e-001	-3.304737e-001
2675046500	3.466481e-001	-9.536678e-002	-4.840281e-001	6.565437e-001	-4.441577e-001	6.865631e-001	1.413116e-001	-3.237085e-001
2700046000	3.036184e-001	-1.175742e-001	-4.471869e-001	7.205209e-001	-4.099957e-001	7.145933e-001	9.831120e-002	-3.033718e-001
2725045500	2.601891e-001	-1.274867e-001	-3.764812e-001	7.981599e-001	-3.701370e-001	7.779808e-001	6.507156e-002	-2.733276e-001
2750045000	2.160622e-001	-1.299961e-001	-2.712163e-001	8.499969e-001	-2.867831e-001	8.527156e-001	3.712358e-002	-2.391994e-001
2775044500	1.717899e-001	-1.186861e-001	-1.691380e-001	8.663221e-001	-1.695938e-001	8.913842e-001	1.956178e-002	-1.969653e-001
2800044000	1.343838e-001	-9.840702e-002	-8.435935e-002	8.731649e-001	-6.289498e-002	8.922964e-001	1.168264e-002	-1.538658e-001
2825043500	9.936692e-002	-7.152774e-002	8.234728e-004	8.858434e-001	2.462153e-002	8.867524e-001	1.230162e-002	-1.076737e-001
2850043000	7.180028e-002	-3.287238e-002	9.955749e-002	8.914396e-001	1.124364e-001	8.859394e-001	2.518045e-002	-6.116148e-002
2875042500	5.597103e-002	1.120541e-002	2.042909e-001	8.767124e-001	2.113671e-001	8.748816e-001	5.114326e-002	-2.124034e-002
2900042000	5.326530e-002	5.838624e-002	3.009087e-001	8.449323e-001	3.078895e-001	8.441118e-001	8.439688e-002	1.200272e-002
2925041500	6.155669e-002	1.043508e-001	3.908672e-001	8.044268e-001	3.950171e-001	8.041619e-001	1.264905e-001	3.548769e-002
2950041000	8.138276e-002	1.466917e-001	4.797277e-001	7.563581e-001	4.788652e-001	7.617967e-001	1.719412e-001	4.904553e-002
2975040500	1.135036e-001	1.840972e-001	5.694141e-001	6.889482e-001	5.716004e-001	7.093443e-001	2.217163e-001	4.976508e-002
3000040000	1.535974e-001	2.093729e-001	6.397327e-001	5.940236e-001	6.654317e-001	6.229795e-001	2.678235e-001	3.717069e-002
3025039500	1.919202e-001	2.261587e-001	6.695796e-001	4.955461e-001	7.217804e-001	5.048843e-001	3.061964e-001	2.129372e-002
3050039000	2.376715e-001	2.401328e-001	6.772234e-001	4.255587e-001	7.268938e-001	3.985402e-001	3.478333e-001	-1.012927e-003
3075038500	2.897818e-001	2.386945e-001	6.995685e-001	3.799139e-001	7.187833e-001	3.357767e-001	3.837592e-001	-3.924405e-002
3100038000	3.359341e-001	2.249374e-001	7.469772e-001	3.189269e-001	7.404519e-001	2.929106e-001	4.051046e-001	-8.077707e-002
3125037500	3.774316e-001	2.043816e-001	7.817822e-001	2.233167e-001	7.844994e-001	2.224892e-001	4.196572e-001	-1.251763e-001
3150037000	4.138205e-001	1.764121e-001	7.750161e-001	1.247742e-001	8.037246e-001	1.186410e-001	4.246224e-001	-1.700624e-001
3175036500	4.444040e-001	1.456999e-001	7.490228e-001	5.441065e-002	7.815680e-001	2.161704e-002	4.239788e-001	-2.134797e-001
3200036000	4.715568e-001	1.100413e-001	7.303027e-001	4.728805e-003	7.461694e-001	-4.587182e-002	4.170226e-001	-2.579356e-001
3225035500	4.925187e-001	6.739524e-002	7.222676e-001	-3.924884e-002	7.178703e-001	-9.487404e-002	4.005053e-001	-3.024752e-001
3250035000	5.037742e-001	2.141029e-002	7.235401e-001	-8.498660e-002	6.981159e-001	-1.371097e-001	3.760202e-001	-3.432759e-001
3275034500	5.045614e-001	-2.491997e-002	7.320221e-001	-1.433646e-001	6.887270e-001	-1.778366e-001	3.437839e-001	-3.774315e-001
3300034000	4.989516e-001	-6.889946e-002	7.311070e-001	-2.228079e-001	6.869734e-001	-2.311387e-001	3.075485e-001	-4.042092e-001
3325033500	4.877980e-001	-1.110665e-001	6.985429e-001	-3.035796e-001	6.743061e-001	-3.007531e-001	2.682516e-001	-4.254172e-001
3350033000	4.699681e-001	-1.508593e-001	6.516608e-001	-3.563282e-001	6.383644e-001	-3.672578e-001	2.250382e-001	-4.410081e-001
3375032500	4.446209e-001	-1.888580e-001	6.253303e-001	-3.910928e-001	5.980157e-001	-4.133846e-001	1.784668e-001	-4.501239e-001
3400032000	4.113390e-001	-2.212646e-001	6.178166e-001	-4.445026e-001	5.714947e-001	-4.550173e-001	1.286741e-001	-4.488885e-001
3425031500	3.727678e-001	-2.454398e-001	5.932274e-001	-5.232845e-001	5.469816e-001	-5.118770e-001	8.188637e-002	-4.376065e-001
3450031000	3.316823e-001	-2.620588e-001	5.382084e-001	-5.972297e-001	5.037264e-001	-5.750549e-001	3.744916e-002	-4.189496e-001
3475030500	2.884289e-001	-2.710503e-001	4.768673e-001	-6.503805e-001	4.492954e-001	-6.258943e-001	-3.119406e-003	-3.923159e-001
3500030000	2.427752e-001	-2.703019e-001	4.211753e-001	-7.025433e-001	3.989568e-001	-6.703654e-001	-3.889517e-002	-3.557672e-001
3525029500	1.993981e-001	-2.576015e-001	3.529134e-001	-7.620901e-001	3.460057e-001	-7.245650e-001	-6.579826e-002	-3.103896e-001
3550029000	1.614122e-001	-2.362252e-001	2.639617e-001	-8.108263e-001	2.718259e-001	-7.826598e-001	-8.220434e-002	-2.610487e-001
3575028500	1.276768e-001	-2.068693e-001	1.687351e-001	-8.389759e-001	1.767891e-001	-8.250872e-001	-8.776406e-002	-2.069142e-001
3600028000	1.028435e-001	-1.680971e-001	7.682137e-002	-8.561169e-001	7.644139e-002	-8.451543e-001	-8.174143e-002	-1.515686e-001
3625027500	8.999453e-002	-1.243647e-001	-2.138571e-002	-8.670339e-001	-2.326189e-002	-8.516447e-001	-6.069476e-002	-9.912107e-002
3650027000	8.895749e-002	-7.865826e-002	-1.257540e-001	-8.613286e-001	-1.232967e-001	-8.453322e-001	-2.615041e-002	-5.291165e-002
3675026500	1.014802e-001	-3.408686e-002	-2.277776e-001	-8.369468e-001	-2.235904e-001	-8.235603e-001	1.811964e-002	-1.629428e-002
3700026000	1.275194e-001	5.733478e-003	-3.216428e-001	-7.967771e-001	-3.172204e-001	-7.851075e-001	7.237913e-002	7.727597e-003
3725025500	1.631359e-001	3.680349e-002	-4.050116e-001	-7.476248e-001	-4.016324e-001	-7.373847e-001	1.316065e-001	1.794450e-002
3750025000	2.062131e-001	5.808602e-002	-4.819267e-001	-6.922014e-001	-4.812952e-001	-6.820708e-001	1.904478e-001	1.360675e-002
3775024500	2.532080e-001	6.666660e-002	-5.577771e-001	-6.248138e-001	-5.582062e-001	-6.113373e-001	2.466706e-001	-3.331044e-003
3800024000	3.005734e-001	6.300599e-002	-6.165022e-001	-5.343377e-001	-6.147818e-001	-5.161213e-001	2.962470e-001	-3.290027e-002
3825023500	3.477712e-001	5.127309e-002	-6.376541e-001	-4.445116e-001	-6.310115e-001	-4.227337e-001	3.377251e-001	-7.081381e-002
3850023000	3.943827e-001	2.427587e-002	-6.429096e-001	-3.848497e-001	-6.291970e-001	-3.621071e-001	3.735173e-001	-1.207168e-001
3875022500	4.289797e-001	-1.404083e-002	-6.702451e-001	-3.430208e-001	-6.473584e-001	-3.237751e-001	3.909624e-001	-1.774164e-001
